;$FILEVERSION=1.1
;$STARTTIME=44735.4979708333
;
;   Start time: 23.6.2022 11.57.04.680.0
;   Generated by PCAN-View v4.3.4.615
;
;   Message Number
;   |         Time Offset (ms)
;   |         |        Type
;   |         |        |        ID (hex)
;   |         |        |        |     Data Length
;   |         |        |        |     |   Data Bytes (hex) ...
;   |         |        |        |     |   |
;---+--   ----+----  --+--  ----+---  +  -+ -- -- -- -- -- -- --
     1)         2.1  Rx         0112  8  96 39 6E 0F 5E 01 65 62 
     2)         2.2  Rx         01A1  5  7C CB 00 00 8A 
     3)        13.1  Rx         0112  8  96 39 6E 0F 5E 01 65 62 
     4)        24.1  Rx         0112  8  96 39 6E 0F 5E 01 65 62 
     5)        24.3  Rx         01A1  5  7C CB 00 00 8A 
     6)        35.1  Rx         0112  8  96 39 6E 0F 5E 01 65 62 
     7)        46.1  Rx         0112  8  96 39 6E 0F 5E 01 65 62 
     8)        46.2  Rx         01A1  5  7C CB 00 00 8A 
     9)        57.1  Rx         0112  8  96 39 6E 0F 5E 01 65 62 
    10)        60.1  Rx         003C  8  FF 5F 00 00 00 00 FF FF 
    11)        61.1  Rx         03E9  8  08 52 00 00 00 00 00 00 
    12)        62.1  Rx         0431  8  CA FF 0B 02 69 26 F3 4B 
    13)        63.1  Rx         012F  8  F5 28 8A 1D F1 35 30 80 
    14)        64.1  Rx         02F1  8  9A 10 00 00 00 00 00 A0 
    15)        65.1  Rx         0560  8  00 00 00 00 FE 00 00 60 
    16)        68.1  Rx         0112  8  96 39 6E 0F 5E 01 65 62 
    17)        68.2  Rx         01A1  5  7C CB 00 00 8A 
    18)        75.6  Rx         03B4  8  00 00 0C F0 98 FF 00 00 
    19)        79.1  Rx         0112  8  96 39 6E 0F 5E 01 65 62 
    20)        90.1  Rx         0112  8  96 39 6E 0F 5E 01 65 62 
    21)        90.3  Rx         01A1  5  7C CB 00 00 8A 
    22)       101.1  Rx         0112  8  96 39 6E 0F 5E 01 65 62 
    23)       105.6  Rx         03C3  8  70 10 48 92 24 48 92 24 
    24)       112.1  Rx         0112  8  96 39 6E 0F 5E 01 65 62 
    25)       112.2  Rx         01A1  5  7C CB 00 00 8A 
    26)       115.7  Rx         0272  8  2F F9 02 12 FF FF FF FF 
    27)       123.1  Rx         0112  8  96 39 6E 0F 5E 01 65 62 
    28)       134.1  Rx         0112  8  96 39 6E 0F 5E 01 65 62 
    29)       134.3  Rx         01A1  5  7C CB 00 00 8A 
    30)       145.0  Rx         0112  8  96 39 6E 0F 5E 01 65 62 
    31)       156.1  Rx         0112  8  96 39 6E 0F 5E 01 65 62 
    32)       156.2  Rx         01A1  5  7C CB 00 00 8A 
    33)       161.1  Rx         003C  8  FF 5F 00 00 00 00 FF FF 
    34)       162.1  Rx         03E9  8  08 52 00 00 00 00 00 00 
    35)       163.1  Rx         0431  8  CA FF 0B 02 69 26 F3 4B 
    36)       164.1  Rx         012F  8  F5 28 8A 1D F1 35 30 80 
    37)       165.1  Rx         02F1  8  9A 10 00 00 00 00 00 A0 
    38)       166.1  Rx         0560  8  00 00 00 00 FE 00 00 60 
    39)       166.3  Rx         02FA  8  FD FF 00 FF FF FF FF FF 
    40)       167.1  Rx         0432  8  2C E2 10 A3 46 FF 02 FF 
    41)       168.1  Rx         051A  8  00 00 00 00 50 00 00 1A 
    42)       169.1  Rx         0540  8  00 00 00 00 FD 3C FF 40 
    43)       170.1  Rx         0510  8  40 10 20 00 00 00 00 00 
    44)       171.1  Rx         0112  8  96 39 6E 0F 5E 01 65 62 
    45)       182.1  Rx         0112  8  96 39 6E 0F 5E 01 65 62 
    46)       182.3  Rx         01A1  5  7C CB 00 00 8A 
    47)       193.0  Rx         0112  8  96 39 6E 0F 5E 01 65 62 
    48)       204.1  Rx         0112  8  96 39 6E 0F 5E 01 65 62 
    49)       204.3  Rx         01A1  5  7C CB 00 00 8A 
    50)       215.1  Rx         0112  8  96 39 6E 0F 5E 01 65 62 
    51)       226.1  Rx         0112  8  96 39 6E 0F 5E 01 65 62 
    52)       226.3  Rx         01A1  5  7C CB 00 00 8A 
    53)       237.1  Rx         0112  8  96 39 6E 0F 5E 01 65 62 
    54)       248.1  Rx         0112  8  96 39 6E 0F 5E 01 65 62 
    55)       248.3  Rx         01A1  5  7C CB 00 00 8A 
    56)       259.1  Rx         0112  8  96 39 6E 0F 5E 01 65 62 
    57)       262.1  Rx         003C  8  FF 5F 00 00 00 00 FF FF 
    58)       263.1  Rx         03E9  8  08 52 00 00 00 00 00 00 
    59)       264.1  Rx         0431  8  CA FF 0B 02 69 26 F3 4B 
    60)       265.1  Rx         012F  8  F5 28 8A 1D F1 35 30 80 
    61)       266.1  Rx         02F1  8  9A 10 00 00 00 00 00 A0 
    62)       267.1  Rx         0560  8  00 00 00 00 FE 00 00 60 
    63)       270.1  Rx         0112  8  96 39 6E 0F 5E 01 65 62 
    64)       270.3  Rx         01A1  5  7C CB 00 00 8A 
    65)       275.8  Rx         03B4  8  00 00 0C F0 98 FF 00 00 
    66)       281.1  Rx         0112  8  96 39 6E 0F 5E 01 65 62 
    67)       292.0  Rx         0112  8  96 39 6E 0F 5E 01 65 62 
    68)       292.2  Rx         01A1  5  7C CB 00 00 8A 
    69)       303.1  Rx         0112  8  96 39 6E 0F 5E 01 65 62 
    70)       314.1  Rx         0112  8  96 39 6E 0F 5E 01 65 62 
    71)       314.3  Rx         01A1  5  7C CB 00 00 8A 
    72)       315.8  Rx         0272  8  C8 FA 02 12 FF FF FF FF 
    73)       325.1  Rx         0112  8  96 39 6E 0F 5E 01 65 62 
    74)       336.1  Rx         0112  8  96 39 6E 0F 5E 01 65 62 
    75)       336.2  Rx         01A1  5  7C CB 00 00 8A 
    76)       347.0  Rx         0112  8  96 39 6E 0F 5E 01 65 62 
    77)       358.1  Rx         0112  8  96 39 6E 0F 5E 01 65 62 
    78)       358.2  Rx         01A1  5  7C CB 00 00 8A 
    79)       363.1  Rx         003C  8  FF 5F 00 00 00 00 FF FF 
    80)       364.1  Rx         03E9  8  08 52 00 00 00 00 00 00 
    81)       365.1  Rx         0431  8  CA FF 0B 02 69 26 F3 4B 
    82)       366.1  Rx         012F  8  F5 28 8A 1D F1 35 30 80 
    83)       367.1  Rx         02F1  8  9A 10 00 00 00 00 00 A0 
    84)       368.1  Rx         0560  8  00 00 00 00 FE 00 00 60 
    85)       368.4  Rx         02FA  8  FD FF 00 FF FF FF FF FF 
    86)       369.1  Rx         0432  8  2C E2 10 A3 46 FF 02 FF 
    87)       370.1  Rx         051A  8  00 00 00 00 50 00 00 1A 
    88)       371.1  Rx         0540  8  00 00 00 00 FD 3C FF 40 
    89)       372.1  Rx         0510  8  40 10 20 00 00 00 00 00 
    90)       373.1  Rx         0112  8  96 39 6E 0F 5E 01 65 62 
    91)       384.1  Rx         0112  8  96 39 6E 0F 5E 01 65 62 
    92)       384.2  Rx         01A1  5  7C CB 00 00 8A 
    93)       395.1  Rx         0112  8  96 39 6E 0F 5E 01 65 62 
    94)       406.1  Rx         0112  8  96 39 6E 0F 5E 01 65 62 
    95)       406.2  Rx         01A1  5  7C CB 00 00 8A 
    96)       417.1  Rx         0112  8  96 39 6E 0F 5E 01 65 62 
    97)       428.1  Rx         0112  8  96 39 6E 0F 5E 01 65 62 
    98)       428.3  Rx         01A1  5  7C CB 00 00 8A 
    99)       439.1  Rx         0112  8  96 39 6E 0F 5E 01 65 62 
   100)       450.1  Rx         0112  8  96 39 6E 0F 5E 01 65 62 
   101)       450.2  Rx         01A1  5  7C CB 00 00 8A 
   102)       461.0  Rx         0112  8  96 39 6E 0F 5E 01 65 62 
   103)       464.1  Rx         003C  8  FF 5F 00 00 00 00 FF FF 
   104)       465.0  Rx         03E9  8  08 52 00 00 00 00 00 00 
   105)       466.0  Rx         0431  8  CA FF 0B 02 69 26 F3 4B 
   106)       467.0  Rx         012F  8  F5 28 8A 1D F1 35 30 80 
   107)       468.1  Rx         02F1  8  9A 10 00 00 00 00 00 A0 
   108)       469.1  Rx         0560  8  00 00 00 00 FE 00 00 60 
   109)       472.0  Rx         0112  8  96 39 6E 0F 5E 01 65 62 
   110)       472.2  Rx         01A1  5  7C CB 00 00 8A 
   111)       476.0  Rx         03B4  8  00 00 0C F0 98 FF 00 00 
   112)       483.1  Rx         0112  8  96 39 6E 0F 5E 01 65 62 
   113)       494.1  Rx         0112  8  96 39 6E 0F 5E 01 65 62 
   114)       494.2  Rx         01A1  5  7C CB 00 00 8A 
   115)       505.1  Rx         0112  8  96 39 6E 0F 5E 01 65 62 
   116)       516.0  Rx         0272  8  95 FB 02 12 FF FF FF FF 
   117)       516.3  Rx         0112  8  96 39 6E 0F 5E 01 65 62 
   118)       516.5  Rx         01A1  5  7C CB 00 00 8A 
   119)       527.0  Rx         0112  8  96 39 6E 0F 5E 01 65 62 
   120)       538.0  Rx         0112  8  96 39 6E 0F 5E 01 65 62 
   121)       538.2  Rx         01A1  5  7C CB 00 00 8A 
   122)       549.1  Rx         0112  8  96 39 6E 0F 5E 01 65 62 
   123)       560.1  Rx         0112  8  96 39 6E 0F 5E 01 65 62 
   124)       560.2  Rx         01A1  5  7C CB 00 00 8A 
   125)       565.1  Rx         003C  8  FF 5F 00 00 00 00 FF FF 
   126)       566.1  Rx         03E9  8  08 52 00 00 00 00 00 00 
   127)       567.1  Rx         0431  8  CA FF 0B 02 69 26 F3 4B 
   128)       568.1  Rx         012F  8  F5 28 8A 1D F1 35 30 80 
   129)       569.1  Rx         02F1  8  9A 10 00 00 00 00 00 A0 
   130)       570.1  Rx         0560  8  00 00 00 00 FE 00 00 60 
   131)       570.3  Rx         02FA  8  FD FF 00 FF FF FF FF FF 
   132)       571.1  Rx         0432  8  2C E2 10 A3 46 FF 02 FF 
   133)       572.1  Rx         051A  8  00 00 00 00 50 00 00 1A 
   134)       573.1  Rx         0540  8  00 00 00 00 FD 3C FF 40 
   135)       574.1  Rx         0510  8  40 10 20 00 00 00 00 00 
   136)       575.0  Rx         0328  6  9B 00 00 00 87 1E 
   137)       576.0  Rx         03E8  2  F1 FF 
   138)       577.1  Rx         03F9  8  C0 F9 80 E0 43 3C C3 FF 
   139)       578.1  Rx         0112  8  96 39 6E 0F 5E 01 65 62 
   140)       589.1  Rx         0112  8  96 39 6E 0F 5E 01 65 62 
   141)       589.2  Rx         01A1  5  7C CB 00 00 8A 
   142)       600.1  Rx         0112  8  96 39 6E 0F 5E 01 65 62 
   143)       611.0  Rx         0112  8  96 39 6E 0F 5E 01 65 62 
   144)       611.3  Rx         01A1  5  7C CB 00 00 8A 
   145)       622.1  Rx         0112  8  96 39 6E 0F 5E 01 65 62 
   146)       633.1  Rx         0112  8  96 39 6E 0F 5E 01 65 62 
   147)       633.2  Rx         01A1  5  7C CB 00 00 8A 
   148)       644.1  Rx         0112  8  96 39 6E 0F 5E 01 65 62 
   149)       655.1  Rx         0112  8  96 39 6E 0F 5E 01 65 62 
   150)       655.2  Rx         01A1  5  7C CB 00 00 8A 
   151)       666.0  Rx         0112  8  96 39 6E 0F 5E 01 65 62 
   152)       666.3  Rx         003C  8  FF 5F 00 00 00 00 FF FF 
   153)       667.1  Rx         03E9  8  08 52 00 00 00 00 00 00 
   154)       668.0  Rx         0431  8  CA FF 0B 02 69 26 F3 4B 
   155)       669.1  Rx         012F  8  F5 28 8A 1D F1 35 30 80 
   156)       670.1  Rx         02F1  8  9A 10 00 00 00 00 00 A0 
   157)       671.1  Rx         0560  8  00 00 00 00 FE 00 00 60 
   158)       676.1  Rx         0337  2  FF FF 
   159)       676.4  Rx         03B4  8  00 00 0C F0 98 FF 00 00 
   160)       677.0  Rx         0112  8  96 39 6E 0F 5E 01 65 62 
   161)       677.2  Rx         01A1  5  7C CB 00 00 8A 
   162)       688.1  Rx         0112  8  96 39 6E 0F 5E 01 65 62 
   163)       699.1  Rx         0112  8  96 39 6E 0F 5E 01 65 62 
   164)       699.2  Rx         01A1  5  7C CB 00 00 8A 
   165)       710.1  Rx         0112  8  96 39 6E 0F 5E 01 65 62 
   166)       716.3  Rx         0272  8  1B FC 02 12 FF FF FF FF 
   167)       721.1  Rx         0112  8  96 39 6E 0F 5E 01 65 62 
   168)       721.3  Rx         01A1  5  7C CB 00 00 8A 
   169)       732.1  Rx         0112  8  96 39 6E 0F 5E 01 65 62 
   170)       743.1  Rx         0112  8  96 39 6E 0F 5E 01 65 62 
   171)       743.3  Rx         01A1  5  7C CB 00 00 8A 
   172)       754.1  Rx         0112  8  96 39 6E 0F 5E 01 65 62 
   173)       765.1  Rx         0112  8  96 39 6E 0F 5E 01 65 62 
   174)       765.2  Rx         01A1  5  7C CB 00 00 8A 
   175)       767.1  Rx         003C  8  FF 5F 00 00 00 00 FF FF 
   176)       768.1  Rx         03E9  8  08 52 00 00 00 00 00 00 
   177)       769.1  Rx         0431  8  CA FF 0B 02 69 26 F3 4B 
   178)       770.1  Rx         012F  8  F5 28 8A 1D F1 35 30 80 
   179)       771.1  Rx         02F1  8  9A 10 00 00 00 00 00 A0 
   180)       772.1  Rx         0560  8  00 00 00 00 FE 00 00 60 
   181)       772.4  Rx         02FA  8  FD FF 00 FF FF FF FF FF 
   182)       773.1  Rx         0432  8  2C E2 10 A3 46 FF 02 FF 
   183)       774.1  Rx         051A  8  00 00 00 00 50 00 00 1A 
   184)       775.1  Rx         0540  8  00 00 00 00 FD 3C FF 40 
   185)       776.1  Rx         0510  8  40 10 20 00 00 00 00 00 
   186)       777.1  Rx         0112  8  96 39 6E 0F 5E 01 65 62 
   187)       788.0  Rx         0112  8  96 39 6E 0F 5E 01 65 62 
   188)       788.2  Rx         01A1  5  7C CB 00 00 8A 
   189)       799.1  Rx         0112  8  96 39 6E 0F 5E 01 65 62 
   190)       810.0  Rx         0112  8  96 39 6E 0F 5E 01 65 62 
   191)       810.2  Rx         01A1  5  7C CB 00 00 8A 
   192)       821.1  Rx         0112  8  96 39 6E 0F 5E 01 65 62 
   193)       832.1  Rx         0112  8  96 39 6E 0F 5E 01 65 62 
   194)       832.3  Rx         01A1  5  7C CB 00 00 8A 
   195)       843.1  Rx         0112  8  96 39 6E 0F 5E 01 65 62 
   196)       854.1  Rx         0112  8  96 39 6E 0F 5E 01 65 62 
   197)       854.2  Rx         01A1  5  7C CB 00 00 8A 
   198)       865.0  Rx         0112  8  96 39 6E 0F 5E 01 65 62 
   199)       868.1  Rx         003C  8  FF 5F 00 00 00 00 FF FF 
   200)       869.0  Rx         03E9  8  08 52 00 00 00 00 00 00 
   201)       870.0  Rx         0431  8  CA FF 0B 02 69 26 F3 4B 
   202)       871.0  Rx         012F  8  F5 28 8A 1D F1 35 30 80 
   203)       872.1  Rx         02F1  8  9A 10 00 00 00 00 00 A0 
   204)       873.0  Rx         0560  8  00 00 00 00 FE 00 00 60 
   205)       876.1  Rx         0112  8  96 39 6E 0F 5E 01 65 62 
   206)       876.2  Rx         01A1  5  7C CB 00 00 8A 
   207)       876.5  Rx         03B4  8  00 00 0C F0 98 FF 00 00 
   208)       887.0  Rx         0112  8  96 39 6E 0F 5E 01 65 62 
   209)       898.0  Rx         0112  8  96 39 6E 0F 5E 01 65 62 
   210)       898.2  Rx         01A1  5  7C CB 00 00 8A 
   211)       909.0  Rx         0112  8  96 39 6E 0F 5E 01 65 62 
   212)       916.4  Rx         0272  8  46 FD 02 12 FF FF FF FF 
   213)       920.1  Rx         0112  8  96 39 6E 0F 5E 01 65 62 
   214)       920.2  Rx         01A1  5  7C CB 00 00 8A 
   215)       931.0  Rx         0112  8  96 39 6E 0F 5E 01 65 62 
   216)       942.0  Rx         0112  8  96 39 6E 0F 5E 01 65 62 
   217)       942.2  Rx         01A1  5  7C CB 00 00 8A 
   218)       953.0  Rx         0112  8  96 39 6E 0F 5E 01 65 62 
   219)       964.1  Rx         0112  8  96 39 6E 0F 5E 01 65 62 
   220)       964.3  Rx         01A1  5  7C CB 00 00 8A 
   221)       969.0  Rx         003C  8  FF 5F 00 00 00 00 FF FF 
   222)       970.1  Rx         03E9  8  08 52 00 00 00 00 00 00 
   223)       971.0  Rx         0431  8  CA FF 0B 02 69 26 F3 4B 
   224)       972.0  Rx         012F  8  F5 28 8A 1D F1 35 30 80 
   225)       973.1  Rx         02F1  8  9A 10 00 00 00 00 00 A0 
   226)       974.1  Rx         0560  8  00 00 00 00 FE 00 00 60 
   227)       974.3  Rx         02FA  8  FD FF 00 FF FF FF FF FF 
   228)       975.1  Rx         0432  8  2C E2 10 A3 46 FF 02 FF 
   229)       976.0  Rx         051A  8  00 00 00 00 50 00 00 1A 
   230)       977.1  Rx         0540  8  00 00 00 00 FD 3C FF 40 
   231)       978.0  Rx         0510  8  40 10 20 00 00 00 00 00 
   232)       979.1  Rx         0112  8  96 39 6E 0F 5E 01 65 62 
   233)       990.0  Rx         0112  8  96 39 6E 0F 5E 01 65 62 
   234)       990.2  Rx         01A1  5  7C CB 00 00 8A 
   235)      1001.0  Rx         0112  8  96 39 6E 0F 5E 01 65 62 
   236)      1012.1  Rx         0112  8  96 39 6E 0F 5E 01 65 62 
   237)      1012.2  Rx         01A1  5  7C CB 00 00 8A 
   238)      1023.1  Rx         0112  8  96 39 6E 0F 5E 01 65 62 
   239)      1034.1  Rx         0112  8  96 39 6E 0F 5E 01 65 62 
   240)      1034.2  Rx         01A1  5  7C CB 00 00 8A 
   241)      1045.1  Rx         0112  8  96 39 6E 0F 5E 01 65 62 
   242)      1056.0  Rx         0112  8  96 39 6E 0F 5E 01 65 62 
   243)      1056.3  Rx         01A1  5  7C CB 00 00 8A 
   244)      1066.5  Rx         03C3  8  71 14 09 92 24 09 82 20 
   245)      1067.0  Rx         0112  8  96 39 6E 0F 5E 01 65 62 
   246)      1070.1  Rx         003C  8  FF 5F 00 00 00 00 FF FF 
   247)      1071.1  Rx         03E9  8  08 52 00 00 00 00 00 00 
   248)      1072.0  Rx         0431  8  CA FF 0B 02 69 26 F3 4B 
   249)      1073.1  Rx         012F  8  F5 28 8A 1D F1 35 30 80 
   250)      1074.1  Rx         02F1  8  9A 10 00 00 00 00 00 A0 
   251)      1075.1  Rx         0560  8  00 00 00 00 FE 00 00 60 
   252)      1076.5  Rx         03B4  8  00 00 0C F0 98 FF 00 00 
   253)      1078.1  Rx         0112  8  96 39 6E 0F 5E 01 65 62 
   254)      1078.3  Rx         01A1  5  7C CB 00 00 8A 
   255)      1089.1  Rx         0112  8  96 39 6E 0F 5E 01 65 62 
   256)      1100.1  Rx         0112  8  96 39 6E 0F 5E 01 65 62 
   257)      1100.2  Rx         01A1  5  7C CB 00 00 8A 
   258)      1111.1  Rx         0112  8  96 39 6E 0F 5E 01 65 62 
   259)      1116.5  Rx         0272  8  A1 FE 02 12 FF FF FF FF 
   260)      1122.1  Rx         0112  8  96 39 6E 0F 5E 01 65 62 
   261)      1122.3  Rx         01A1  5  7C CB 00 00 8A 
   262)      1133.0  Rx         0112  8  96 39 6E 0F 5E 01 65 62 
   263)      1144.1  Rx         0112  8  96 39 6E 0F 5E 01 65 62 
   264)      1144.2  Rx         01A1  5  7C CB 00 00 8A 
   265)      1155.1  Rx         0112  8  96 39 6E 0F 5E 01 65 62 
   266)      1166.0  Rx         0112  8  96 39 6E 0F 5E 01 65 62 
   267)      1166.2  Rx         01A1  5  7C CB 00 00 8A 
   268)      1171.1  Rx         003C  8  FF 5F 00 00 00 00 FF FF 
   269)      1172.1  Rx         03E9  8  08 52 00 00 00 00 00 00 
   270)      1173.1  Rx         0431  8  CA FF 0B 02 69 26 F3 4B 
   271)      1174.1  Rx         012F  8  F5 28 8A 1D F1 35 30 80 
   272)      1175.1  Rx         02F1  8  9A 10 00 00 00 00 00 A0 
   273)      1176.1  Rx         0560  8  00 00 00 00 FE 00 00 60 
   274)      1176.3  Rx         02FA  8  FD FF 00 FF FF FF FF FF 
   275)      1177.1  Rx         0432  8  2C E2 10 A3 46 FF 02 FF 
   276)      1178.1  Rx         051A  8  00 00 00 00 50 00 00 1A 
   277)      1179.1  Rx         0540  8  00 00 00 00 FD 3C FF 40 
   278)      1180.1  Rx         0510  8  40 10 20 00 00 00 00 00 
   279)      1181.1  Rx         0112  8  96 39 6E 0F 5E 01 65 62 
   280)      1192.1  Rx         0112  8  96 39 6E 0F 5E 01 65 62 
   281)      1192.2  Rx         01A1  5  7C CB 00 00 8A 
   282)      1203.1  Rx         0112  8  96 39 6E 0F 5E 01 65 62 
   283)      1214.0  Rx         0112  8  96 39 6E 0F 5E 01 65 62 
   284)      1214.2  Rx         01A1  5  7C CB 00 00 8A 
   285)      1225.0  Rx         0112  8  96 39 6E 0F 5E 01 65 62 
   286)      1236.0  Rx         0112  8  96 39 6E 0F 5E 01 65 62 
   287)      1236.2  Rx         01A1  5  7C CB 00 00 8A 
   288)      1247.1  Rx         0112  8  96 39 6E 0F 5E 01 65 62 
   289)      1258.0  Rx         0112  8  96 39 6E 0F 5E 01 65 62 
   290)      1258.2  Rx         01A1  5  7C CB 00 00 8A 
   291)      1269.0  Rx         0112  8  96 39 6E 0F 5E 01 65 62 
   292)      1272.1  Rx         003C  8  FF 5F 00 00 00 00 FF FF 
   293)      1273.1  Rx         03E9  8  08 52 00 00 00 00 00 00 
   294)      1274.1  Rx         0431  8  CA FF 0B 02 69 26 F3 4B 
   295)      1275.0  Rx         012F  8  F5 28 8A 1D F1 35 30 80 
   296)      1276.1  Rx         02F1  8  9A 10 00 00 00 00 00 A0 
   297)      1276.7  Rx         03B4  8  00 00 0C F0 98 FF 00 00 
   298)      1277.0  Rx         0560  8  00 00 00 00 FE 00 00 60 
   299)      1280.0  Rx         0112  8  96 39 6E 0F 5E 01 65 62 
   300)      1280.2  Rx         01A1  5  7C CB 00 00 8A 
   301)      1291.0  Rx         0112  8  96 39 6E 0F 5E 01 65 62 
   302)      1302.1  Rx         0112  8  96 39 6E 0F 5E 01 65 62 
   303)      1302.2  Rx         01A1  5  7C CB 00 00 8A 
   304)      1313.1  Rx         0112  8  96 39 6E 0F 5E 01 65 62 
   305)      1316.7  Rx         0272  8  A0 F0 02 12 FF FF FF FF 
   306)      1324.0  Rx         0112  8  96 39 6E 0F 5E 01 65 62 
   307)      1324.2  Rx         01A1  5  7C CB 00 00 8A 
   308)      1335.1  Rx         0112  8  96 39 6E 0F 5E 01 65 62 
   309)      1346.0  Rx         0112  8  96 39 6E 0F 5E 01 65 62 
   310)      1346.3  Rx         01A1  5  7C CB 00 00 8A 
   311)      1357.0  Rx         0112  8  96 39 6E 0F 5E 01 65 62 
   312)      1368.1  Rx         0112  8  96 39 6E 0F 5E 01 65 62 
   313)      1368.2  Rx         01A1  5  7C CB 00 00 8A 
   314)      1373.0  Rx         003C  8  FF 5F 00 00 00 00 FF FF 
   315)      1374.0  Rx         03E9  8  08 52 00 00 00 00 00 00 
   316)      1375.0  Rx         0431  8  CA FF 0B 02 69 26 F3 4B 
   317)      1376.0  Rx         012F  8  F5 28 8A 1D F1 35 30 80 
   318)      1377.1  Rx         02F1  8  9A 10 00 00 00 00 00 A0 
   319)      1378.0  Rx         0560  8  00 00 00 00 FE 00 00 60 
   320)      1378.3  Rx         02FA  8  FD FF 00 FF FF FF FF FF 
   321)      1379.0  Rx         0432  8  2C E2 10 A3 46 FF 02 FF 
   322)      1380.0  Rx         051A  8  00 00 00 00 50 00 00 1A 
   323)      1381.1  Rx         0540  8  00 00 00 00 FD 3C FF 40 
   324)      1382.1  Rx         0510  8  40 10 20 00 00 00 00 00 
   325)      1383.1  Rx         0112  8  96 39 6E 0F 5E 01 65 62 
   326)      1394.0  Rx         0112  8  96 39 6E 0F 5E 01 65 62 
   327)      1394.2  Rx         01A1  5  7C CB 00 00 8A 
   328)      1405.0  Rx         0112  8  96 39 6E 0F 5E 01 65 62 
   329)      1416.1  Rx         0112  8  96 39 6E 0F 5E 01 65 62 
   330)      1416.3  Rx         01A1  5  7C CB 00 00 8A 
   331)      1427.1  Rx         0112  8  96 39 6E 0F 5E 01 65 62 
   332)      1438.1  Rx         0112  8  96 39 6E 0F 5E 01 65 62 
   333)      1438.2  Rx         01A1  5  7C CB 00 00 8A 
   334)      1449.1  Rx         0112  8  96 39 6E 0F 5E 01 65 62 
   335)      1460.0  Rx         0112  8  96 39 6E 0F 5E 01 65 62 
   336)      1460.2  Rx         01A1  5  7C CB 00 00 8A 
   337)      1471.1  Rx         0112  8  96 39 6E 0F 5E 01 65 62 
   338)      1474.1  Rx         003C  8  FF 5F 00 00 00 00 FF FF 
   339)      1475.1  Rx         03E9  8  08 52 00 00 00 00 00 00 
   340)      1476.0  Rx         0431  8  CA FF 0B 02 69 26 F3 4B 
   341)      1476.9  Rx         03B4  8  00 00 0C F0 98 FF 00 00 
   342)      1477.1  Rx         012F  8  F5 28 8A 1D F1 35 30 80 
   343)      1478.0  Rx         02F1  8  9A 10 00 00 00 00 00 A0 
   344)      1479.1  Rx         0560  8  00 00 00 00 FE 00 00 60 
   345)      1482.1  Rx         0112  8  96 39 6E 0F 5E 01 65 62 
   346)      1482.2  Rx         01A1  5  7C CB 00 00 8A 
   347)      1493.0  Rx         0112  8  96 39 6E 0F 5E 01 65 62 
   348)      1504.1  Rx         0112  8  96 39 6E 0F 5E 01 65 62 
   349)      1504.2  Rx         01A1  5  7C CB 00 00 8A 
   350)      1515.0  Rx         0112  8  96 39 6E 0F 5E 01 65 62 
   351)      1516.9  Rx         0272  8  FD F1 02 12 FF FF FF FF 
   352)      1526.1  Rx         0112  8  96 39 6E 0F 5E 01 65 62 
   353)      1526.3  Rx         01A1  5  7C CB 00 00 8A 
   354)      1537.0  Rx         0112  8  96 39 6E 0F 5E 01 65 62 
   355)      1548.0  Rx         0112  8  96 39 6E 0F 5E 01 65 62 
   356)      1548.2  Rx         01A1  5  7C CB 00 00 8A 
   357)      1559.0  Rx         0112  8  96 39 6E 0F 5E 01 65 62 
   358)      1570.1  Rx         0112  8  96 39 6E 0F 5E 01 65 62 
   359)      1570.3  Rx         01A1  5  7C CB 00 00 8A 
   360)      1575.1  Rx         003C  8  FF 5F 00 00 00 00 FF FF 
   361)      1576.1  Rx         03E9  8  08 52 00 00 00 00 00 00 
   362)      1577.0  Rx         0431  8  CA FF 0B 02 69 26 F3 4B 
   363)      1578.0  Rx         012F  8  F5 28 8A 1D F1 35 30 80 
   364)      1579.0  Rx         02F1  8  9A 10 00 00 00 00 00 A0 
   365)      1580.1  Rx         0560  8  00 00 00 00 FE 00 00 60 
   366)      1580.3  Rx         02FA  8  FD FF 00 FF FF FF FF FF 
   367)      1581.0  Rx         0432  8  2C E2 10 A3 46 FF 02 FF 
   368)      1582.1  Rx         051A  8  00 00 00 00 50 00 00 1A 
   369)      1583.1  Rx         0540  8  00 00 00 00 FD 3C FF 40 
   370)      1584.1  Rx         0510  8  40 10 20 00 00 00 00 00 
   371)      1585.0  Rx         0328  6  9C 00 00 00 87 1E 
   372)      1586.0  Rx         03E8  2  F1 FF 
   373)      1587.1  Rx         03F9  8  C0 F9 80 E0 43 3C C3 FF 
   374)      1588.1  Rx         02FC  8  81 00 04 FF FF FF FF FF 
   375)      1589.1  Rx         02A0  8  88 88 F8 0F FF FF FF FF 
   376)      1590.0  Rx         03A0  8  FF FF C0 FF FF FF FF FC 
   377)      1590.3  Rx         0112  8  96 39 6E 0F 5E 01 65 62 
   378)      1601.1  Rx         0112  8  96 39 6E 0F 5E 01 65 62 
   379)      1601.2  Rx         01A1  5  7C CB 00 00 8A 
   380)      1612.0  Rx         0112  8  96 39 6E 0F 5E 01 65 62 
   381)      1623.0  Rx         0112  8  96 39 6E 0F 5E 01 65 62 
   382)      1623.2  Rx         01A1  5  7C CB 00 00 8A 
