;$FILEVERSION=1.1
;$STARTTIME=44735.6031618171
;
;   Start time: 23.6.2022 14.28.33.181.0
;   Generated by PCAN-View v4.3.4.615
;
;   Message Number
;   |         Time Offset (ms)
;   |         |        Type
;   |         |        |        ID (hex)
;   |         |        |        |     Data Length
;   |         |        |        |     |   Data Bytes (hex) ...
;   |         |        |        |     |   |
;---+--   ----+----  --+--  ----+---  +  -+ -- -- -- -- -- -- --
     1)         1.4  Rx         0112  8  FD 1F 60 0F 54 01 65 62 
     2)        12.4  Rx         0112  8  FD 1F 60 0F 54 01 65 62 
     3)        12.6  Rx         01A1  5  7C CB 00 00 8A 
     4)        23.4  Rx         0112  8  FD 1F 60 0F 54 01 65 62 
     5)        34.5  Rx         0112  8  FD 1F 60 0F 54 01 65 62 
     6)        34.6  Rx         01A1  5  7C CB 00 00 8A 
     7)        45.4  Rx         0112  8  FD 1F 60 0F 54 01 65 62 
     8)        56.4  Rx         0112  8  FD 1F 60 0F 54 01 65 62 
     9)        56.6  Rx         01A1  5  7C CB 00 00 8A 
    10)        61.4  Rx         003C  8  FF 5F 00 00 00 00 FF FF 
    11)        62.4  Rx         03E9  8  08 52 00 00 00 00 00 00 
    12)        63.4  Rx         0431  8  CA FF 0B 02 69 26 F3 4B 
    13)        64.4  Rx         012F  8  F5 28 8A 1D F1 35 30 80 
    14)        65.4  Rx         02F1  8  9A 10 00 00 00 00 00 A0 
    15)        66.4  Rx         0560  8  00 00 00 00 FE 00 00 60 
    16)        66.7  Rx         02FA  8  FD FF 00 FF FF FF FF FF 
    17)        67.4  Rx         0432  8  2C E2 10 A3 44 FF 02 FF 
    18)        68.4  Rx         051A  8  00 00 00 00 50 00 00 1A 
    19)        69.4  Rx         0540  8  00 00 00 00 FD 3C FF 40 
    20)        70.4  Rx         0510  8  40 10 20 00 00 00 00 00 
    21)        71.4  Rx         0112  8  FD 1F 60 0F 54 01 65 62 
    22)        82.4  Rx         0112  8  FD 1F 60 0F 54 01 65 62 
    23)        82.6  Rx         01A1  5  7C CB 00 00 8A 
    24)        93.4  Rx         0112  8  FD 1F 60 0F 54 01 65 62 
    25)       104.4  Rx         0112  8  FD 1F 60 0F 54 01 65 62 
    26)       104.6  Rx         01A1  5  7C CB 00 00 8A 
    27)       115.4  Rx         0112  8  FD 1F 60 0F 54 01 65 62 
    28)       126.4  Rx         0112  8  FD 1F 60 0F 54 01 65 62 
    29)       126.6  Rx         01A1  5  7C CB 00 00 8A 
    30)       137.4  Rx         0112  8  FD 1F 60 0F 54 01 65 62 
    31)       148.5  Rx         0112  8  FD 1F 60 0F 54 01 65 62 
    32)       148.6  Rx         01A1  5  7C CB 00 00 8A 
    33)       159.4  Rx         0112  8  FD 1F 60 0F 54 01 65 62 
    34)       162.5  Rx         003C  8  FF 5F 00 00 00 00 FF FF 
    35)       163.5  Rx         03E9  8  08 52 00 00 00 00 00 00 
    36)       164.4  Rx         0431  8  CA FF 0B 02 69 26 F3 4B 
    37)       165.4  Rx         012F  8  F5 28 8A 1D F1 35 30 80 
    38)       166.5  Rx         02F1  8  9A 10 00 00 00 00 00 A0 
    39)       167.4  Rx         0560  8  00 00 00 00 FE 00 00 60 
    40)       170.4  Rx         0112  8  FD 1F 60 0F 54 01 65 62 
    41)       170.6  Rx         01A1  5  7C CB 00 00 8A 
    42)       173.5  Rx         0272  8  A7 F3 70 12 FF FF FF FF 
    43)       181.4  Rx         0112  8  FD 1F 60 0F 54 01 65 62 
    44)       192.4  Rx         0112  8  FD 1F 60 0F 54 01 65 62 
    45)       192.6  Rx         01A1  5  7C CB 00 00 8A 
    46)       193.3  Rx         03B4  8  00 00 0C F0 98 FF 00 00 
    47)       203.4  Rx         0112  8  FD 1F 60 0F 54 01 65 62 
    48)       214.4  Rx         0112  8  FD 1F 60 0F 54 01 65 62 
    49)       214.6  Rx         01A1  5  7C CB 00 00 8A 
    50)       225.4  Rx         0112  8  FD 1F 60 0F 54 01 65 62 
    51)       236.4  Rx         0112  8  FD 1F 60 0F 54 01 65 62 
    52)       236.6  Rx         01A1  5  7C CB 00 00 8A 
    53)       247.4  Rx         0112  8  FD 1F 60 0F 54 01 65 62 
    54)       258.4  Rx         0112  8  FD 1F 60 0F 54 01 65 62 
    55)       258.6  Rx         01A1  5  7C CB 00 00 8A 
    56)       263.4  Rx         003C  8  FF 5F 00 00 00 00 FF FF 
    57)       264.5  Rx         03E9  8  08 52 00 00 00 00 00 00 
    58)       265.4  Rx         0431  8  CA FF 0B 02 69 26 F3 4B 
    59)       266.4  Rx         012F  8  F5 28 8A 1D F1 35 30 80 
    60)       267.5  Rx         02F1  8  9A 10 00 00 00 00 00 A0 
    61)       268.5  Rx         0560  8  00 00 00 00 FE 00 00 60 
    62)       268.7  Rx         02FA  8  FD FF 00 FF FF FF FF FF 
    63)       269.5  Rx         0432  8  2C E2 10 A3 44 FF 02 FF 
    64)       270.4  Rx         051A  8  00 00 00 00 50 00 00 1A 
    65)       271.5  Rx         0540  8  00 00 00 00 FD 3C FF 40 
    66)       272.4  Rx         0510  8  40 10 20 00 00 00 00 00 
    67)       273.5  Rx         0112  8  FD 1F 60 0F 54 01 65 62 
    68)       284.4  Rx         0112  8  FD 1F 60 0F 54 01 65 62 
    69)       284.6  Rx         01A1  5  7C CB 00 00 8A 
    70)       295.4  Rx         0112  8  FD 1F 60 0F 54 01 65 62 
    71)       306.5  Rx         0112  8  FD 1F 60 0F 54 01 65 62 
    72)       306.6  Rx         01A1  5  7C CB 00 00 8A 
    73)       317.5  Rx         0112  8  FD 1F 60 0F 54 01 65 62 
    74)       328.4  Rx         0112  8  FD 1F 60 0F 54 01 65 62 
    75)       328.6  Rx         01A1  5  7C CB 00 00 8A 
    76)       339.4  Rx         0112  8  FD 1F 60 0F 54 01 65 62 
    77)       350.4  Rx         0112  8  FD 1F 60 0F 54 01 65 62 
    78)       350.6  Rx         01A1  5  7C CB 00 00 8A 
    79)       361.4  Rx         0112  8  FD 1F 60 0F 54 01 65 62 
    80)       364.5  Rx         003C  8  FF 5F 00 00 00 00 FF FF 
    81)       365.5  Rx         03E9  8  08 52 00 00 00 00 00 00 
    82)       366.4  Rx         0431  8  CA FF 0B 02 69 26 F3 4B 
    83)       367.4  Rx         012F  8  F5 28 8A 1D F1 35 30 80 
    84)       368.4  Rx         02F1  8  9A 10 00 00 00 00 00 A0 
    85)       369.5  Rx         0560  8  00 00 00 00 FE 00 00 60 
    86)       372.5  Rx         0112  8  FD 1F 60 0F 54 01 65 62 
    87)       372.6  Rx         01A1  5  7C CB 00 00 8A 
    88)       373.5  Rx         0272  8  29 F4 70 12 FF FF FF FF 
    89)       383.4  Rx         0112  8  FD 1F 60 0F 54 01 65 62 
    90)       393.5  Rx         03B4  8  00 00 0C F0 98 FF 00 00 
    91)       394.4  Rx         0112  8  FD 1F 60 0F 54 01 65 62 
    92)       394.6  Rx         01A1  5  7C CB 00 00 8A 
    93)       403.5  Rx         03C3  8  71 10 48 92 24 48 92 24 
    94)       405.4  Rx         0112  8  FD 1F 60 0F 54 01 65 62 
    95)       416.4  Rx         0112  8  FD 1F 60 0F 54 01 65 62 
    96)       416.6  Rx         01A1  5  7C CB 00 00 8A 
    97)       427.4  Rx         0112  8  FD 1F 60 0F 54 01 65 62 
    98)       438.4  Rx         0112  8  FD 1F 60 0F 54 01 65 62 
    99)       438.6  Rx         01A1  5  7C CB 00 00 8A 
   100)       449.4  Rx         0112  8  FD 1F 60 0F 54 01 65 62 
   101)       460.4  Rx         0112  8  FD 1F 60 0F 54 01 65 62 
   102)       460.6  Rx         01A1  5  7C CB 00 00 8A 
   103)       465.4  Rx         003C  8  FF 5F 00 00 00 00 FF FF 
   104)       466.4  Rx         03E9  8  08 52 00 00 00 00 00 00 
   105)       467.4  Rx         0431  8  CA FF 0B 02 69 26 F3 4B 
   106)       468.4  Rx         012F  8  F5 28 8A 1D F1 35 30 80 
   107)       469.4  Rx         02F1  8  9A 10 00 00 00 00 00 A0 
   108)       470.5  Rx         0560  8  00 00 00 00 FE 00 00 60 
   109)       470.7  Rx         02FA  8  FD FF 00 FF FF FF FF FF 
   110)       471.4  Rx         0432  8  2C E2 10 A3 44 FF 02 FF 
   111)       472.5  Rx         051A  8  00 00 00 00 50 00 00 1A 
   112)       473.4  Rx         0540  8  00 00 00 00 FD 3C FF 40 
   113)       474.5  Rx         0510  8  40 10 20 00 00 00 00 00 
   114)       475.5  Rx         0112  8  FD 1F 60 0F 54 01 65 62 
   115)       486.4  Rx         0112  8  FD 1F 60 0F 54 01 65 62 
   116)       486.6  Rx         01A1  5  7C CB 00 00 8A 
   117)       497.4  Rx         0112  8  FD 1F 60 0F 54 01 65 62 
   118)       508.4  Rx         0112  8  FD 1F 60 0F 54 01 65 62 
   119)       508.6  Rx         01A1  5  7C CB 00 00 8A 
   120)       519.4  Rx         0112  8  FD 1F 60 0F 54 01 65 62 
   121)       530.4  Rx         0112  8  FD 1F 60 0F 54 01 65 62 
   122)       530.6  Rx         01A1  5  7C CB 00 00 8A 
   123)       541.4  Rx         0112  8  FD 1F 60 0F 54 01 65 62 
   124)       552.4  Rx         0112  8  FD 1F 60 0F 54 01 65 62 
   125)       552.6  Rx         01A1  5  7C CB 00 00 8A 
   126)       563.4  Rx         0112  8  FD 1F 60 0F 54 01 65 62 
   127)       566.5  Rx         003C  8  FF 5F 00 00 00 00 FF FF 
   128)       567.4  Rx         03E9  8  08 52 00 00 00 00 00 00 
   129)       568.4  Rx         0431  8  CA FF 0B 02 69 26 F3 4B 
   130)       569.4  Rx         012F  8  F5 28 8A 1D F1 35 30 80 
   131)       570.4  Rx         02F1  8  9A 10 00 00 00 00 00 A0 
   132)       571.5  Rx         0560  8  00 00 00 00 FE 00 00 60 
   133)       573.7  Rx         0272  8  74 F5 70 12 FF FF FF FF 
   134)       574.4  Rx         0112  8  FD 1F 60 0F 54 01 65 62 
   135)       574.6  Rx         01A1  5  7C CB 00 00 8A 
   136)       585.4  Rx         0112  8  FD 1F 60 0F 54 01 65 62 
   137)       593.8  Rx         0337  2  FF FF 
   138)       594.1  Rx         03B4  8  00 00 0C F0 98 FF 00 00 
   139)       596.4  Rx         0112  8  FD 1F 60 0F 54 01 65 62 
   140)       596.6  Rx         01A1  5  7C CB 00 00 8A 
   141)       607.4  Rx         0112  8  FD 1F 60 0F 54 01 65 62 
   142)       618.4  Rx         0112  8  FD 1F 60 0F 54 01 65 62 
   143)       618.6  Rx         01A1  5  7C CB 00 00 8A 
   144)       629.4  Rx         0112  8  FD 1F 60 0F 54 01 65 62 
   145)       640.4  Rx         0112  8  FD 1F 60 0F 54 01 65 62 
   146)       640.6  Rx         01A1  5  7C CB 00 00 8A 
   147)       651.4  Rx         0112  8  FD 1F 60 0F 54 01 65 62 
   148)       662.4  Rx         0112  8  FD 1F 60 0F 54 01 65 62 
   149)       662.6  Rx         01A1  5  7C CB 00 00 8A 
   150)       667.4  Rx         003C  8  FF 5F 00 00 00 00 FF FF 
   151)       668.4  Rx         03E9  8  08 52 00 00 00 00 00 00 
   152)       669.4  Rx         0431  8  CA FF 0B 02 69 26 F3 4B 
   153)       670.4  Rx         012F  8  F5 28 8A 1D F1 35 30 80 
   154)       671.5  Rx         02F1  8  9A 10 00 00 00 00 00 A0 
   155)       672.4  Rx         0560  8  00 00 00 00 FE 00 00 60 
   156)       672.7  Rx         02FA  8  FD FF 00 FF FF FF FF FF 
   157)       673.4  Rx         0432  8  2C E2 10 A3 44 FF 02 FF 
   158)       674.4  Rx         051A  8  00 00 00 00 50 00 00 1A 
   159)       675.5  Rx         0540  8  00 00 00 00 FD 3C FF 40 
   160)       676.5  Rx         0510  8  40 10 20 00 00 00 00 00 
   161)       677.4  Rx         0328  6  41 00 00 00 87 1E 
   162)       678.3  Rx         03E8  2  F1 FF 
   163)       679.4  Rx         03F9  8  C0 F9 80 E0 43 3C C3 FF 
   164)       680.5  Rx         0112  8  FD 1F 60 0F 54 01 65 62 
   165)       691.4  Rx         0112  8  FD 1F 60 0F 54 01 65 62 
   166)       691.6  Rx         01A1  5  7C CB 00 00 8A 
   167)       702.4  Rx         0112  8  FD 1F 60 0F 54 01 65 62 
   168)       713.4  Rx         0112  8  FD 1F 60 0F 54 01 65 62 
   169)       713.6  Rx         01A1  5  7C CB 00 00 8A 
   170)       724.5  Rx         0112  8  FD 1F 60 0F 54 01 65 62 
   171)       735.5  Rx         0112  8  FD 1F 60 0F 54 01 65 62 
   172)       735.6  Rx         01A1  5  7C CB 00 00 8A 
   173)       746.4  Rx         0112  8  FD 1F 60 0F 54 01 65 62 
   174)       757.4  Rx         0112  8  FD 1F 60 0F 54 01 65 62 
   175)       757.6  Rx         01A1  5  7C CB 00 00 8A 
   176)       768.4  Rx         0112  8  FD 1F 60 0F 54 01 65 62 
   177)       768.7  Rx         003C  8  FF 5F 00 00 00 00 FF FF 
   178)       769.5  Rx         03E9  8  08 52 00 00 00 00 00 00 
   179)       770.4  Rx         0431  8  CA FF 0B 02 69 26 F3 4B 
   180)       771.4  Rx         012F  8  F5 28 8A 1D F1 35 30 80 
   181)       772.4  Rx         02F1  8  9A 10 00 00 00 00 00 A0 
   182)       773.5  Rx         0560  8  00 00 00 00 FE 00 00 60 
   183)       774.2  Rx         0272  8  93 F6 70 12 FF FF FF FF 
   184)       779.4  Rx         0112  8  FD 1F 60 0F 54 01 65 62 
   185)       779.6  Rx         01A1  5  7C CB 00 00 8A 
   186)       790.4  Rx         0112  8  FD 1F 60 0F 54 01 65 62 
   187)       793.9  Rx         03B4  8  00 00 0C F0 98 FF 00 00 
   188)       801.4  Rx         0112  8  FD 1F 60 0F 54 01 65 62 
   189)       801.6  Rx         01A1  5  7C CB 00 00 8A 
   190)       812.4  Rx         0112  8  FD 1F 60 0F 54 01 65 62 
   191)       823.4  Rx         0112  8  FD 1F 60 0F 54 01 65 62 
   192)       823.6  Rx         01A1  5  7C CB 00 00 8A 
   193)       834.4  Rx         0112  8  FD 1F 60 0F 54 01 65 62 
   194)       845.5  Rx         0112  8  FD 1F 60 0F 54 01 65 62 
   195)       845.6  Rx         01A1  5  7C CB 00 00 8A 
   196)       856.5  Rx         0112  8  FD 1F 60 0F 54 01 65 62 
   197)       867.4  Rx         0112  8  FD 1F 60 0F 54 01 65 62 
   198)       867.6  Rx         01A1  5  7C CB 00 00 8A 
   199)       869.4  Rx         003C  8  FF 5F 00 00 00 00 FF FF 
   200)       870.5  Rx         03E9  8  08 52 00 00 00 00 00 00 
   201)       871.4  Rx         0431  8  CA FF 0B 02 69 26 F3 4B 
   202)       872.4  Rx         012F  8  F5 28 8A 1D F1 35 30 80 
   203)       873.4  Rx         02F1  8  9A 10 00 00 00 00 00 A0 
   204)       874.4  Rx         0560  8  00 00 00 00 FE 00 00 60 
   205)       874.7  Rx         02FA  8  FD FF 00 FF FF FF FF FF 
   206)       875.4  Rx         0432  8  2C E2 10 A3 44 FF 02 FF 
   207)       876.4  Rx         051A  8  00 00 00 00 50 00 00 1A 
   208)       877.5  Rx         0540  8  00 00 00 00 FD 3C FF 40 
   209)       878.4  Rx         0510  8  40 10 20 00 00 00 00 00 
   210)       879.5  Rx         0112  8  FD 1F 60 0F 54 01 65 62 
   211)       890.5  Rx         0112  8  FD 1F 60 0F 54 01 65 62 
   212)       890.6  Rx         01A1  5  7C CB 00 00 8A 
   213)       901.4  Rx         0112  8  FD 1F 60 0F 54 01 65 62 
   214)       912.4  Rx         0112  8  FD 1F 60 0F 54 01 65 62 
   215)       912.6  Rx         01A1  5  7C CB 00 00 8A 
   216)       923.4  Rx         0112  8  FD 1F 60 0F 54 01 65 62 
   217)       934.5  Rx         0112  8  FD 1F 60 0F 54 01 65 62 
   218)       934.6  Rx         01A1  5  7C CB 00 00 8A 
   219)       945.4  Rx         0112  8  FD 1F 60 0F 54 01 65 62 
   220)       956.4  Rx         0112  8  FD 1F 60 0F 54 01 65 62 
   221)       956.6  Rx         01A1  5  7C CB 00 00 8A 
   222)       967.4  Rx         0112  8  FD 1F 60 0F 54 01 65 62 
   223)       970.5  Rx         003C  8  FF 5F 00 00 00 00 FF FF 
   224)       971.5  Rx         03E9  8  08 52 00 00 00 00 00 00 
   225)       972.4  Rx         0431  8  CA FF 0B 02 69 26 F3 4B 
   226)       973.5  Rx         012F  8  F5 28 8A 1D F1 35 30 80 
   227)       974.1  Rx         0272  8  CE F7 70 12 FF FF FF FF 
   228)       974.4  Rx         02F1  8  9A 10 00 00 00 00 00 A0 
   229)       975.5  Rx         0560  8  00 00 00 00 FE 00 00 60 
   230)       978.5  Rx         0112  8  FD 1F 60 0F 54 01 65 62 
   231)       978.6  Rx         01A1  5  7C CB 00 00 8A 
   232)       989.5  Rx         0112  8  FD 1F 60 0F 54 01 65 62 
   233)       994.1  Rx         03B4  8  00 00 0C F0 98 FF 00 00 
   234)      1000.5  Rx         0112  8  FD 1F 60 0F 54 01 65 62 
   235)      1000.6  Rx         01A1  5  7C CB 00 00 8A 
   236)      1011.5  Rx         0112  8  FD 1F 60 0F 54 01 65 62 
   237)      1022.4  Rx         0112  8  FD 1F 60 0F 54 01 65 62 
   238)      1022.7  Rx         01A1  5  7C CB 00 00 8A 
   239)      1033.4  Rx         0112  8  FD 1F 60 0F 54 01 65 62 
   240)      1044.5  Rx         0112  8  FD 1F 60 0F 54 01 65 62 
   241)      1044.6  Rx         01A1  5  7C CB 00 00 8A 
   242)      1055.5  Rx         0112  8  FD 1F 60 0F 54 01 65 62 
   243)      1066.4  Rx         0112  8  FD 1F 60 0F 54 01 65 62 
   244)      1066.6  Rx         01A1  5  7C CB 00 00 8A 
   245)      1071.5  Rx         003C  8  FF 5F 00 00 00 00 FF FF 
   246)      1072.4  Rx         03E9  8  08 52 00 00 00 00 00 00 
   247)      1073.4  Rx         0431  8  CA FF 0B 02 69 26 F3 4B 
   248)      1074.4  Rx         012F  8  F5 28 8A 1D F1 35 30 80 
   249)      1075.5  Rx         02F1  8  9A 10 00 00 00 00 00 A0 
   250)      1076.5  Rx         0560  8  00 00 00 00 FE 00 00 60 
   251)      1076.7  Rx         02FA  8  FD FF 00 FF FF FF FF FF 
   252)      1077.4  Rx         0432  8  2C E2 10 A3 44 FF 02 FF 
   253)      1078.5  Rx         051A  8  00 00 00 00 50 00 00 1A 
   254)      1079.5  Rx         0540  8  00 00 00 00 FD 3C FF 40 
   255)      1080.5  Rx         0510  8  40 10 20 00 00 00 00 00 
   256)      1081.5  Rx         0112  8  FD 1F 60 0F 54 01 65 62 
   257)      1092.5  Rx         0112  8  FD 1F 60 0F 54 01 65 62 
   258)      1092.6  Rx         01A1  5  7C CB 00 00 8A 
   259)      1103.4  Rx         0112  8  FD 1F 60 0F 54 01 65 62 
   260)      1114.4  Rx         0112  8  FD 1F 60 0F 54 01 65 62 
   261)      1114.6  Rx         01A1  5  7C CB 00 00 8A 
   262)      1125.4  Rx         0112  8  FD 1F 60 0F 54 01 65 62 
   263)      1136.4  Rx         0112  8  FD 1F 60 0F 54 01 65 62 
   264)      1136.6  Rx         01A1  5  7C CB 00 00 8A 
   265)      1147.4  Rx         0112  8  FD 1F 60 0F 54 01 65 62 
   266)      1158.4  Rx         0112  8  FD 1F 60 0F 54 01 65 62 
   267)      1158.6  Rx         01A1  5  7C CB 00 00 8A 
   268)      1169.4  Rx         0112  8  FD 1F 60 0F 54 01 65 62 
   269)      1172.5  Rx         003C  8  FF 5F 00 00 00 00 FF FF 
   270)      1173.4  Rx         03E9  8  08 52 00 00 00 00 00 00 
   271)      1174.3  Rx         0272  8  92 F8 70 12 FF FF FF FF 
   272)      1174.5  Rx         0431  8  CA FF 0B 02 69 26 F3 4B 
   273)      1175.4  Rx         012F  8  F5 28 8A 1D F1 35 30 80 
   274)      1176.4  Rx         02F1  8  9A 10 00 00 00 00 00 A0 
   275)      1177.4  Rx         0560  8  00 00 00 00 FE 00 00 60 
   276)      1180.4  Rx         0112  8  FD 1F 60 0F 54 01 65 62 
   277)      1180.6  Rx         01A1  5  7C CB 00 00 8A 
   278)      1191.4  Rx         0112  8  FD 1F 60 0F 54 01 65 62 
   279)      1194.5  Rx         03B4  8  00 00 0C F0 98 FF 00 00 
   280)      1202.4  Rx         0112  8  FD 1F 60 0F 54 01 65 62 
   281)      1202.6  Rx         01A1  5  7C CB 00 00 8A 
   282)      1213.5  Rx         0112  8  FD 1F 60 0F 54 01 65 62 
   283)      1224.5  Rx         0112  8  FD 1F 60 0F 54 01 65 62 
   284)      1224.6  Rx         01A1  5  7C CB 00 00 8A 
   285)      1235.4  Rx         0112  8  FD 1F 60 0F 54 01 65 62 
   286)      1246.4  Rx         0112  8  FD 1F 60 0F 54 01 65 62 
   287)      1246.6  Rx         01A1  5  7C CB 00 00 8A 
   288)      1257.4  Rx         0112  8  FD 1F 60 0F 54 01 65 62 
   289)      1268.5  Rx         0112  8  FD 1F 60 0F 54 01 65 62 
   290)      1268.6  Rx         01A1  5  7C CB 00 00 8A 
   291)      1273.5  Rx         003C  8  FF 5F 00 00 00 00 FF FF 
   292)      1274.5  Rx         03E9  8  08 52 00 00 00 00 00 00 
   293)      1275.4  Rx         0431  8  CA FF 0B 02 69 26 F3 4B 
   294)      1276.4  Rx         012F  8  F5 28 8A 1D F1 35 30 80 
   295)      1277.5  Rx         02F1  8  9A 10 00 00 00 00 00 A0 
   296)      1278.5  Rx         0560  8  00 00 00 00 FE 00 00 60 
   297)      1278.7  Rx         02FA  8  FD FF 00 FF FF FF FF FF 
   298)      1279.5  Rx         0432  8  2C E2 10 A3 44 FF 02 FF 
   299)      1280.5  Rx         051A  8  00 00 00 00 50 00 00 1A 
   300)      1281.5  Rx         0540  8  00 00 00 00 FD 3C FF 40 
   301)      1282.5  Rx         0510  8  40 10 20 00 00 00 00 00 
   302)      1283.5  Rx         0112  8  FD 1F 60 0F 54 01 65 62 
   303)      1294.4  Rx         0112  8  FD 1F 60 0F 54 01 65 62 
   304)      1294.6  Rx         01A1  5  7C CB 00 00 8A 
   305)      1305.4  Rx         0112  8  FD 1F 60 0F 54 01 65 62 
   306)      1316.4  Rx         0112  8  FD 1F 60 0F 54 01 65 62 
   307)      1316.6  Rx         01A1  5  7C CB 00 00 8A 
   308)      1327.4  Rx         0112  8  FD 1F 60 0F 54 01 65 62 
   309)      1338.4  Rx         0112  8  FD 1F 60 0F 54 01 65 62 
   310)      1338.6  Rx         01A1  5  7C CB 00 00 8A 
   311)      1349.4  Rx         0112  8  FD 1F 60 0F 54 01 65 62 
   312)      1360.4  Rx         0112  8  FD 1F 60 0F 54 01 65 62 
   313)      1360.7  Rx         01A1  5  7C CB 00 00 8A 
   314)      1364.5  Rx         03C3  8  72 14 09 92 24 89 82 20 
   315)      1371.4  Rx         0112  8  FD 1F 60 0F 54 01 65 62 
   316)      1374.5  Rx         003C  8  FF 5F 00 00 00 00 FF FF 
   317)      1374.7  Rx         0272  8  CF F9 70 12 FF FF FF FF 
   318)      1375.5  Rx         03E9  8  08 52 00 00 00 00 00 00 
   319)      1376.4  Rx         0431  8  CA FF 0B 02 69 26 F3 4B 
   320)      1377.4  Rx         012F  8  F5 28 8A 1D F1 35 30 80 
   321)      1378.4  Rx         02F1  8  9A 10 00 00 00 00 00 A0 
   322)      1379.5  Rx         0560  8  00 00 00 00 FE 00 00 60 
   323)      1382.5  Rx         0112  8  FD 1F 60 0F 54 01 65 62 
   324)      1382.6  Rx         01A1  5  7C CB 00 00 8A 
   325)      1393.4  Rx         0112  8  FD 1F 60 0F 54 01 65 62 
   326)      1394.5  Rx         03B4  8  00 00 0C F0 98 FF 00 00 
   327)      1404.4  Rx         0112  8  FD 1F 60 0F 54 01 65 62 
   328)      1404.6  Rx         01A1  5  7C CB 00 00 8A 
   329)      1415.4  Rx         0112  8  FD 1F 60 0F 54 01 65 62 
   330)      1426.4  Rx         0112  8  FD 1F 60 0F 54 01 65 62 
   331)      1426.6  Rx         01A1  5  7C CB 00 00 8A 
   332)      1437.4  Rx         0112  8  FD 1F 60 0F 54 01 65 62 
   333)      1448.4  Rx         0112  8  FD 1F 60 0F 54 01 65 62 
   334)      1448.6  Rx         01A1  5  7C CB 00 00 8A 
   335)      1459.4  Rx         0112  8  FD 1F 60 0F 54 01 65 62 
   336)      1470.4  Rx         0112  8  FD 1F 60 0F 54 01 65 62 
   337)      1470.6  Rx         01A1  5  7C CB 00 00 8A 
   338)      1475.4  Rx         003C  8  FF 5F 00 00 00 00 FF FF 
   339)      1476.4  Rx         03E9  8  08 52 00 00 00 00 00 00 
   340)      1477.4  Rx         0431  8  CA FF 0B 02 69 26 F3 4B 
   341)      1478.4  Rx         012F  8  F5 28 8A 1D F1 35 30 80 
   342)      1479.4  Rx         02F1  8  9A 10 00 00 00 00 00 A0 
   343)      1480.5  Rx         0560  8  00 00 00 00 FE 00 00 60 
   344)      1480.7  Rx         02FA  8  FD FF 00 FF FF FF FF FF 
   345)      1481.4  Rx         0432  8  2C E2 10 A3 44 FF 02 FF 
   346)      1482.4  Rx         051A  8  00 00 00 00 50 00 00 1A 
   347)      1483.4  Rx         0540  8  00 00 00 00 FD 3C FF 40 
   348)      1484.5  Rx         0510  8  40 10 20 00 00 00 00 00 
   349)      1485.5  Rx         0112  8  FD 1F 60 0F 54 01 65 62 
   350)      1496.5  Rx         0112  8  FD 1F 60 0F 54 01 65 62 
   351)      1496.6  Rx         01A1  5  7C CB 00 00 8A 
   352)      1507.4  Rx         0112  8  FD 1F 60 0F 54 01 65 62 
   353)      1518.4  Rx         0112  8  FD 1F 60 0F 54 01 65 62 
   354)      1518.6  Rx         01A1  5  7C CB 00 00 8A 
   355)      1529.4  Rx         0112  8  FD 1F 60 0F 54 01 65 62 
   356)      1540.4  Rx         0112  8  FD 1F 60 0F 54 01 65 62 
   357)      1540.6  Rx         01A1  5  7C CB 00 00 8A 
   358)      1551.4  Rx         0112  8  FD 1F 60 0F 54 01 65 62 
   359)      1562.4  Rx         0112  8  FD 1F 60 0F 54 01 65 62 
   360)      1562.6  Rx         01A1  5  7C CB 00 00 8A 
   361)      1573.4  Rx         0112  8  FD 1F 60 0F 54 01 65 62 
   362)      1574.7  Rx         0272  8  28 FA 70 12 FF FF FF FF 
   363)      1576.5  Rx         003C  8  FF 5F 00 00 00 00 FF FF 
   364)      1577.4  Rx         03E9  8  08 52 00 00 00 00 00 00 
   365)      1578.4  Rx         0431  8  CA FF 0B 02 69 26 F3 4B 
   366)      1579.4  Rx         012F  8  F5 28 8A 1D F1 35 30 80 
   367)      1580.5  Rx         02F1  8  9A 10 00 00 00 00 00 A0 
   368)      1581.4  Rx         0560  8  00 00 00 00 FE 00 00 60 
   369)      1584.4  Rx         0112  8  FD 1F 60 0F 54 01 65 62 
   370)      1584.6  Rx         01A1  5  7C CB 00 00 8A 
   371)      1594.6  Rx         0337  2  FF FF 
   372)      1594.8  Rx         03B4  8  00 00 0C F0 98 FF 00 00 
   373)      1595.4  Rx         0112  8  FD 1F 60 0F 54 01 65 62 
   374)      1606.4  Rx         0112  8  FD 1F 60 0F 54 01 65 62 
   375)      1606.6  Rx         01A1  5  7C CB 00 00 8A 
   376)      1617.4  Rx         0112  8  FD 1F 60 0F 54 01 65 62 
   377)      1628.4  Rx         0112  8  FD 1F 60 0F 54 01 65 62 
   378)      1628.6  Rx         01A1  5  7C CB 00 00 8A 
   379)      1639.4  Rx         0112  8  FD 1F 60 0F 54 01 65 62 
   380)      1650.4  Rx         0112  8  FD 1F 60 0F 54 01 65 62 
   381)      1650.6  Rx         01A1  5  7C CB 00 00 8A 
   382)      1661.4  Rx         0112  8  FD 1F 60 0F 54 01 65 62 
