;$FILEVERSION=1.1
;$STARTTIME=44735.6577108796
;
;   Start time: 23.6.2022 15.47.06.220.0
;   Generated by PCAN-View v4.3.4.615
;
;   Message Number
;   |         Time Offset (ms)
;   |         |        Type
;   |         |        |        ID (hex)
;   |         |        |        |     Data Length
;   |         |        |        |     |   Data Bytes (hex) ...
;   |         |        |        |     |   |
;---+--   ----+----  --+--  ----+---  +  -+ -- -- -- -- -- -- --
     1)         5.7  Rx         0112  8  FD 1F 53 0F 54 01 65 62 
     2)        10.7  Rx         003C  8  FF 5F 00 00 00 00 FF FF 
     3)        11.7  Rx         03E9  8  08 52 00 00 00 00 00 00 
     4)        12.7  Rx         0431  8  CA FF 0B 02 69 26 F3 4B 
     5)        13.7  Rx         012F  8  F5 28 8A 1D F1 35 30 80 
     6)        14.7  Rx         02F1  8  9A 10 00 00 00 00 00 A0 
     7)        15.7  Rx         0560  8  00 00 00 00 FE 00 00 60 
     8)        16.0  Rx         02FA  8  FD FF 00 FF FF FF FF FF 
     9)        16.7  Rx         0432  8  2C E2 10 A3 44 FF 02 FF 
    10)        17.7  Rx         051A  8  00 00 00 00 50 00 00 1A 
    11)        18.7  Rx         0540  8  00 00 00 00 FD 3C FF 40 
    12)        19.1  Rx         0272  8  CB F3 00 12 FF FF FF FF 
    13)        19.7  Rx         0510  8  40 10 20 00 00 00 00 00 
    14)        20.8  Rx         0112  8  FD 1F 53 0F 54 01 65 62 
    15)        20.9  Rx         01A1  5  7C CB 00 00 8A 
    16)        31.6  Rx         0112  8  FD 1F 53 0F 54 01 65 62 
    17)        42.7  Rx         0112  8  FD 1F 53 0F 54 01 65 62 
    18)        42.9  Rx         01A1  5  7C CB 00 00 8A 
    19)        53.7  Rx         0112  8  FD 1F 53 0F 54 01 65 62 
    20)        64.7  Rx         0112  8  FD 1F 53 0F 54 01 65 62 
    21)        64.9  Rx         01A1  5  7C CB 00 00 8A 
    22)        75.7  Rx         0112  8  FD 1F 53 0F 54 01 65 62 
    23)        86.7  Rx         0112  8  FD 1F 53 0F 54 01 65 62 
    24)        86.9  Rx         01A1  5  7C CB 00 00 8A 
    25)        97.7  Rx         0112  8  FD 1F 53 0F 54 01 65 62 
    26)       108.7  Rx         0112  8  FD 1F 53 0F 54 01 65 62 
    27)       108.9  Rx         01A1  5  7C CB 00 00 8A 
    28)       111.8  Rx         003C  8  FF 5F 00 00 00 00 FF FF 
    29)       112.7  Rx         03E9  8  08 52 00 00 00 00 00 00 
    30)       113.7  Rx         0431  8  CA FF 0B 02 69 26 F3 4B 
    31)       114.7  Rx         012F  8  F5 28 8A 1D F1 35 30 80 
    32)       115.7  Rx         02F1  8  9A 10 00 00 00 00 00 A0 
    33)       116.8  Rx         0560  8  00 00 00 00 FE 00 00 60 
    34)       119.7  Rx         0112  8  FD 1F 53 0F 54 01 65 62 
    35)       130.7  Rx         0112  8  FD 1F 53 0F 54 01 65 62 
    36)       130.9  Rx         01A1  5  7C CB 00 00 8A 
    37)       133.8  Rx         03C3  8  7E 14 09 92 24 09 82 20 
    38)       141.7  Rx         0112  8  FD 1F 53 0F 54 01 65 62 
    39)       152.7  Rx         0112  8  FD 1F 53 0F 54 01 65 62 
    40)       152.9  Rx         01A1  5  7C CB 00 00 8A 
    41)       163.7  Rx         0112  8  FD 1F 53 0F 54 01 65 62 
    42)       174.7  Rx         0112  8  FD 1F 53 0F 54 01 65 62 
    43)       174.9  Rx         01A1  5  7C CB 00 00 8A 
    44)       183.8  Rx         03B4  8  00 00 0C F0 98 FF 00 00 
    45)       185.7  Rx         0112  8  FD 1F 53 0F 54 01 65 62 
    46)       196.7  Rx         0112  8  FD 1F 53 0F 54 01 65 62 
    47)       196.9  Rx         01A1  5  7C CB 00 00 8A 
    48)       207.7  Rx         0112  8  FD 1F 53 0F 54 01 65 62 
    49)       212.7  Rx         003C  8  FF 5F 00 00 00 00 FF FF 
    50)       213.7  Rx         03E9  8  08 52 00 00 00 00 00 00 
    51)       214.7  Rx         0431  8  CA FF 0B 02 69 26 F3 4B 
    52)       215.7  Rx         012F  8  F5 28 8A 1D F1 35 30 80 
    53)       216.7  Rx         02F1  8  9A 10 00 00 00 00 00 A0 
    54)       217.7  Rx         0560  8  00 00 00 00 FE 00 00 60 
    55)       218.0  Rx         02FA  8  FD FF 00 FF FF FF FF FF 
    56)       218.7  Rx         0432  8  2C E2 10 A3 44 FF 02 FF 
    57)       219.1  Rx         0272  8  45 F4 00 12 FF FF FF FF 
    58)       219.7  Rx         051A  8  00 00 00 00 50 00 00 1A 
    59)       220.7  Rx         0540  8  00 00 00 00 FD 3C FF 40 
    60)       221.7  Rx         0510  8  40 10 20 00 00 00 00 00 
    61)       222.7  Rx         0112  8  FD 1F 53 0F 54 01 65 62 
    62)       222.9  Rx         01A1  5  7C CB 00 00 8A 
    63)       233.7  Rx         0112  8  FD 1F 53 0F 54 01 65 62 
    64)       244.7  Rx         0112  8  FD 1F 53 0F 54 01 65 62 
    65)       244.9  Rx         01A1  5  7C CB 00 00 8A 
    66)       255.7  Rx         0112  8  FD 1F 53 0F 54 01 65 62 
    67)       266.7  Rx         0112  8  FD 1F 53 0F 54 01 65 62 
    68)       266.9  Rx         01A1  5  7C CB 00 00 8A 
    69)       277.7  Rx         0112  8  FD 1F 53 0F 54 01 65 62 
    70)       288.7  Rx         0112  8  FD 1F 53 0F 54 01 65 62 
    71)       288.9  Rx         01A1  5  7C CB 00 00 8A 
    72)       299.7  Rx         0112  8  FD 1F 53 0F 54 01 65 62 
    73)       310.7  Rx         0112  8  FD 1F 53 0F 54 01 65 62 
    74)       310.9  Rx         01A1  5  7C CB 00 00 8A 
    75)       313.7  Rx         003C  8  FF 5F 00 00 00 00 FF FF 
    76)       314.8  Rx         03E9  8  08 52 00 00 00 00 00 00 
    77)       315.7  Rx         0431  8  CA FF 0B 02 69 26 F3 4B 
    78)       316.7  Rx         012F  8  F5 28 8A 1D F1 35 30 80 
    79)       317.8  Rx         02F1  8  9A 10 00 00 00 00 00 A0 
    80)       318.8  Rx         0560  8  00 00 00 00 FE 00 00 60 
    81)       321.7  Rx         0112  8  FD 1F 53 0F 54 01 65 62 
    82)       332.7  Rx         0112  8  FD 1F 53 0F 54 01 65 62 
    83)       332.9  Rx         01A1  5  7C CB 00 00 8A 
    84)       343.7  Rx         0112  8  FD 1F 53 0F 54 01 65 62 
    85)       354.7  Rx         0112  8  FD 1F 53 0F 54 01 65 62 
    86)       354.9  Rx         01A1  5  7C CB 00 00 8A 
    87)       365.8  Rx         0112  8  FD 1F 53 0F 54 01 65 62 
    88)       376.7  Rx         0112  8  FD 1F 53 0F 54 01 65 62 
    89)       376.9  Rx         01A1  5  7C CB 00 00 8A 
    90)       384.0  Rx         03B4  8  00 00 0C F0 98 FF 00 00 
    91)       387.7  Rx         0112  8  FD 1F 53 0F 54 01 65 62 
    92)       398.7  Rx         0112  8  FD 1F 53 0F 54 01 65 62 
    93)       398.9  Rx         01A1  5  7C CB 00 00 8A 
    94)       409.7  Rx         0112  8  FD 1F 53 0F 54 01 65 62 
    95)       414.7  Rx         003C  8  FF 5F 00 00 00 00 FF FF 
    96)       415.7  Rx         03E9  8  08 52 00 00 00 00 00 00 
    97)       416.7  Rx         0431  8  CA FF 0B 02 69 26 F3 4B 
    98)       417.7  Rx         012F  8  F5 28 8A 1D F1 35 30 80 
    99)       418.7  Rx         02F1  8  9A 10 00 00 00 00 00 A0 
   100)       419.2  Rx         0272  8  18 F5 00 12 FF FF FF FF 
   101)       419.7  Rx         0560  8  00 00 00 00 FE 00 00 60 
   102)       420.0  Rx         02FA  8  FD FF 00 FF FF FF FF FF 
   103)       420.7  Rx         0432  8  2C E2 10 A3 44 FF 02 FF 
   104)       421.7  Rx         051A  8  00 00 00 00 50 00 00 1A 
   105)       422.8  Rx         0540  8  00 00 00 00 FD 3C FF 40 
   106)       423.7  Rx         0510  8  40 10 20 00 00 00 00 00 
   107)       424.7  Rx         0328  6  E6 00 00 00 87 1E 
   108)       425.6  Rx         03E8  2  F1 FF 
   109)       426.7  Rx         03F9  8  C0 F9 80 E0 43 3C C3 FF 
   110)       427.7  Rx         0112  8  FD 1F 53 0F 54 01 65 62 
   111)       428.0  Rx         01A1  5  7C CB 00 00 8A 
   112)       438.7  Rx         0112  8  FD 1F 53 0F 54 01 65 62 
   113)       449.7  Rx         0112  8  FD 1F 53 0F 54 01 65 62 
   114)       449.9  Rx         01A1  5  7C CB 00 00 8A 
   115)       460.7  Rx         0112  8  FD 1F 53 0F 54 01 65 62 
   116)       471.7  Rx         0112  8  FD 1F 53 0F 54 01 65 62 
   117)       471.9  Rx         01A1  5  7C CB 00 00 8A 
   118)       482.7  Rx         0112  8  FD 1F 53 0F 54 01 65 62 
   119)       493.7  Rx         0112  8  FD 1F 53 0F 54 01 65 62 
   120)       493.9  Rx         01A1  5  7C CB 00 00 8A 
   121)       504.7  Rx         0112  8  FD 1F 53 0F 54 01 65 62 
   122)       515.7  Rx         0112  8  FD 1F 53 0F 54 01 65 62 
   123)       515.9  Rx         003C  8  FF 5F 00 00 00 00 FF FF 
   124)       516.2  Rx         01A1  5  7C CB 00 00 8A 
   125)       516.7  Rx         03E9  8  08 52 00 00 00 00 00 00 
   126)       517.7  Rx         0431  8  CA FF 0B 02 69 26 F3 4B 
   127)       518.7  Rx         012F  8  F5 28 8A 1D F1 35 30 80 
   128)       519.7  Rx         02F1  8  9A 10 00 00 00 00 00 A0 
   129)       520.7  Rx         0560  8  00 00 00 00 FE 00 00 60 
   130)       526.7  Rx         0112  8  FD 1F 53 0F 54 01 65 62 
   131)       537.7  Rx         0112  8  FD 1F 53 0F 54 01 65 62 
   132)       537.9  Rx         01A1  5  7C CB 00 00 8A 
   133)       548.7  Rx         0112  8  FD 1F 53 0F 54 01 65 62 
   134)       559.7  Rx         0112  8  FD 1F 53 0F 54 01 65 62 
   135)       559.9  Rx         01A1  5  7C CB 00 00 8A 
   136)       570.7  Rx         0112  8  FD 1F 53 0F 54 01 65 62 
   137)       581.7  Rx         0112  8  FD 1F 53 0F 54 01 65 62 
   138)       581.9  Rx         01A1  5  7C CB 00 00 8A 
   139)       584.1  Rx         0337  2  FF FF 
   140)       584.4  Rx         03B4  8  00 00 0C F0 98 FF 00 00 
   141)       592.7  Rx         0112  8  FD 1F 53 0F 54 01 65 62 
   142)       603.7  Rx         0112  8  FD 1F 53 0F 54 01 65 62 
   143)       603.9  Rx         01A1  5  7C CB 00 00 8A 
   144)       614.7  Rx         0112  8  FD 1F 53 0F 54 01 65 62 
   145)       616.8  Rx         003C  8  FF 5F 00 00 00 00 FF FF 
   146)       617.7  Rx         03E9  8  08 52 00 00 00 00 00 00 
   147)       618.7  Rx         0431  8  CA FF 0B 02 69 26 F3 4B 
   148)       619.7  Rx         0272  8  FF F6 00 12 FF FF FF FF 
   149)       619.9  Rx         012F  8  F5 28 8A 1D F1 35 30 80 
   150)       620.8  Rx         02F1  8  9A 10 00 00 00 00 00 A0 
   151)       621.7  Rx         0560  8  00 00 00 00 FE 00 00 60 
   152)       622.0  Rx         02FA  8  FD FF 00 FF FF FF FF FF 
   153)       622.7  Rx         0432  8  2C E2 10 A3 44 FF 02 FF 
   154)       623.8  Rx         051A  8  00 00 00 00 50 00 00 1A 
   155)       624.8  Rx         0540  8  00 00 00 00 FD 3C FF 40 
   156)       625.8  Rx         0510  8  40 10 20 00 00 00 00 00 
   157)       626.8  Rx         0112  8  FD 1F 53 0F 54 01 65 62 
   158)       627.0  Rx         01A1  5  7C CB 00 00 8A 
   159)       637.7  Rx         0112  8  FD 1F 53 0F 54 01 65 62 
   160)       648.7  Rx         0112  8  FD 1F 53 0F 54 01 65 62 
   161)       648.9  Rx         01A1  5  7C CB 00 00 8A 
   162)       659.7  Rx         0112  8  FD 1F 53 0F 54 01 65 62 
   163)       670.7  Rx         0112  8  FD 1F 53 0F 54 01 65 62 
   164)       670.9  Rx         01A1  5  7C CB 00 00 8A 
   165)       681.7  Rx         0112  8  FD 1F 53 0F 54 01 65 62 
   166)       692.7  Rx         0112  8  FD 1F 53 0F 54 01 65 62 
   167)       692.9  Rx         01A1  5  7C CB 00 00 8A 
   168)       703.7  Rx         0112  8  FD 1F 53 0F 54 01 65 62 
   169)       714.7  Rx         0112  8  FD 1F 53 0F 54 01 65 62 
   170)       714.9  Rx         01A1  5  7C CB 00 00 8A 
   171)       717.7  Rx         003C  8  FF 5F 00 00 00 00 FF FF 
   172)       718.7  Rx         03E9  8  08 52 00 00 00 00 00 00 
   173)       719.7  Rx         0431  8  CA FF 0B 02 69 26 F3 4B 
   174)       720.7  Rx         012F  8  F5 28 8A 1D F1 35 30 80 
   175)       721.8  Rx         02F1  8  9A 10 00 00 00 00 00 A0 
   176)       722.7  Rx         0560  8  00 00 00 00 FE 00 00 60 
   177)       725.7  Rx         0112  8  FD 1F 53 0F 54 01 65 62 
   178)       736.7  Rx         0112  8  FD 1F 53 0F 54 01 65 62 
   179)       736.9  Rx         01A1  5  7C CB 00 00 8A 
   180)       747.7  Rx         0112  8  FD 1F 53 0F 54 01 65 62 
   181)       758.7  Rx         0112  8  FD 1F 54 0F 54 01 65 62 
   182)       758.9  Rx         01A1  5  7C CB 00 00 8A 
   183)       769.7  Rx         0112  8  FD 1F 54 0F 54 01 65 62 
   184)       780.7  Rx         0112  8  FD 1F 54 0F 54 01 65 62 
   185)       780.9  Rx         01A1  5  7C CB 00 00 8A 
   186)       784.4  Rx         03B4  8  00 00 0C F0 98 FF 00 00 
   187)       791.7  Rx         0112  8  FD 1F 54 0F 54 01 65 62 
   188)       802.7  Rx         0112  8  FD 1F 54 0F 54 01 65 62 
   189)       802.9  Rx         01A1  5  7C CB 00 00 8A 
   190)       813.7  Rx         0112  8  FD 1F 54 0F 54 01 65 62 
   191)       818.7  Rx         003C  8  FF 5F 00 00 00 00 FF FF 
   192)       819.5  Rx         0272  8  A2 F7 00 12 FF FF FF FF 
   193)       819.8  Rx         03E9  8  08 52 00 00 00 00 00 00 
   194)       820.7  Rx         0431  8  CA FF 0B 02 69 26 F3 4B 
   195)       821.7  Rx         012F  8  F5 28 8A 1D F1 35 30 80 
   196)       822.7  Rx         02F1  8  9A 10 00 00 00 00 00 A0 
   197)       823.7  Rx         0560  8  00 00 00 00 FE 00 00 60 
   198)       824.0  Rx         02FA  8  FD FF 00 FF FF FF FF FF 
   199)       824.7  Rx         0432  8  2C E2 10 A3 44 FF 02 FF 
   200)       825.7  Rx         051A  8  00 00 00 00 50 00 00 1A 
   201)       826.8  Rx         0540  8  00 00 00 00 FD 3C FF 40 
   202)       827.7  Rx         0510  8  40 10 20 00 00 00 00 00 
   203)       828.8  Rx         0112  8  FD 1F 54 0F 54 01 65 62 
   204)       828.9  Rx         01A1  5  7C CB 00 00 8A 
   205)       839.7  Rx         0112  8  FD 1F 54 0F 54 01 65 62 
   206)       850.7  Rx         0112  8  FD 1F 54 0F 54 01 65 62 
   207)       850.9  Rx         01A1  5  7C CB 00 00 8A 
   208)       861.7  Rx         0112  8  FD 1F 54 0F 54 01 65 62 
   209)       872.7  Rx         0112  8  FD 1F 54 0F 54 01 65 62 
   210)       872.9  Rx         01A1  5  7C CB 00 00 8A 
   211)       883.7  Rx         0112  8  FD 1F 54 0F 54 01 65 62 
   212)       894.7  Rx         0112  8  FD 1F 54 0F 54 01 65 62 
   213)       894.9  Rx         01A1  5  7C CB 00 00 8A 
   214)       905.7  Rx         0112  8  FD 1F 54 0F 54 01 65 62 
   215)       916.7  Rx         0112  8  FD 1F 54 0F 54 01 65 62 
   216)       916.9  Rx         01A1  5  7C CB 00 00 8A 
   217)       919.7  Rx         003C  8  FF 5F 00 00 00 00 FF FF 
   218)       920.7  Rx         03E9  8  08 52 00 00 00 00 00 00 
   219)       921.7  Rx         0431  8  CA FF 0B 02 69 26 F3 4B 
   220)       922.7  Rx         012F  8  F5 28 8A 1D F1 35 30 80 
   221)       923.7  Rx         02F1  8  9A 10 00 00 00 00 00 A0 
   222)       924.7  Rx         0560  8  00 00 00 00 FE 00 00 60 
   223)       927.7  Rx         0112  8  FD 1F 54 0F 54 01 65 62 
   224)       938.7  Rx         0112  8  FD 1F 54 0F 54 01 65 62 
   225)       938.9  Rx         01A1  5  7C CB 00 00 8A 
   226)       949.7  Rx         0112  8  FD 1F 54 0F 54 01 65 62 
   227)       960.7  Rx         0112  8  FD 1F 54 0F 54 01 65 62 
   228)       960.9  Rx         01A1  5  7C CB 00 00 8A 
   229)       971.7  Rx         0112  8  FD 1F 54 0F 54 01 65 62 
   230)       982.7  Rx         0112  8  FD 1F 54 0F 54 01 65 62 
   231)       982.9  Rx         01A1  5  7C CB 00 00 8A 
   232)       984.6  Rx         03B4  8  00 00 0C F0 98 FF 00 00 
   233)       993.7  Rx         0112  8  FD 1F 54 0F 54 01 65 62 
   234)      1004.7  Rx         0112  8  FD 1F 54 0F 54 01 65 62 
   235)      1004.9  Rx         01A1  5  7C CB 00 00 8A 
   236)      1015.7  Rx         0112  8  FD 1F 54 0F 54 01 65 62 
   237)      1019.7  Rx         0272  8  FE F8 00 12 FF FF FF FF 
   238)      1020.7  Rx         003C  8  FF 5F 00 00 00 00 FF FF 
   239)      1021.7  Rx         03E9  8  08 52 00 00 00 00 00 00 
   240)      1022.7  Rx         0431  8  CA FF 0B 02 69 26 F3 4B 
   241)      1023.7  Rx         012F  8  F5 28 8A 1D F1 35 30 80 
   242)      1024.7  Rx         02F1  8  9A 10 00 00 00 00 00 A0 
   243)      1025.7  Rx         0560  8  00 00 00 00 FE 00 00 60 
   244)      1026.0  Rx         02FA  8  FD FF 00 FF FF FF FF FF 
   245)      1026.7  Rx         0432  8  2C E2 10 A3 44 FF 02 FF 
   246)      1027.7  Rx         051A  8  00 00 00 00 50 00 00 1A 
   247)      1028.7  Rx         0540  8  00 00 00 00 FD 3C FF 40 
   248)      1029.7  Rx         0510  8  40 10 20 00 00 00 00 00 
   249)      1030.7  Rx         0112  8  FD 1F 54 0F 54 01 65 62 
   250)      1030.9  Rx         01A1  5  7C CB 00 00 8A 
   251)      1041.7  Rx         0112  8  FD 1F 54 0F 54 01 65 62 
   252)      1052.7  Rx         0112  8  FD 1F 54 0F 54 01 65 62 
   253)      1052.9  Rx         01A1  5  7C CB 00 00 8A 
   254)      1063.7  Rx         0112  8  FD 1F 54 0F 54 01 65 62 
   255)      1074.7  Rx         0112  8  FD 1F 54 0F 54 01 65 62 
   256)      1074.9  Rx         01A1  5  7C CB 00 00 8A 
   257)      1085.7  Rx         0112  8  FD 1F 54 0F 54 01 65 62 
   258)      1094.7  Rx         03C3  8  70 18 09 82 20 08 82 20 
   259)      1096.7  Rx         0112  8  FD 1F 54 0F 54 01 65 62 
   260)      1096.9  Rx         01A1  5  7C CB 00 00 8A 
   261)      1107.7  Rx         0112  8  FD 1F 54 0F 54 01 65 62 
   262)      1118.7  Rx         0112  8  FD 1F 54 0F 54 01 65 62 
   263)      1118.9  Rx         01A1  5  7C CB 00 00 8A 
   264)      1121.7  Rx         003C  8  FF 5F 00 00 00 00 FF FF 
   265)      1122.7  Rx         03E9  8  08 52 00 00 00 00 00 00 
   266)      1123.7  Rx         0431  8  CA FF 0B 02 69 26 F3 4B 
   267)      1124.7  Rx         012F  8  F5 28 8A 1D F1 35 30 80 
   268)      1125.7  Rx         02F1  8  9A 10 00 00 00 00 00 A0 
   269)      1126.7  Rx         0560  8  00 00 00 00 FE 00 00 60 
   270)      1129.8  Rx         0112  8  FD 1F 54 0F 54 01 65 62 
   271)      1140.8  Rx         0112  8  FD 1F 54 0F 54 01 65 62 
   272)      1140.9  Rx         01A1  5  7C CB 00 00 8A 
   273)      1151.8  Rx         0112  8  FD 1F 54 0F 54 01 65 62 
   274)      1162.7  Rx         0112  8  FD 1F 54 0F 54 01 65 62 
   275)      1162.9  Rx         01A1  5  7C CB 00 00 8A 
   276)      1173.7  Rx         0112  8  FD 1F 54 0F 54 01 65 62 
   277)      1184.8  Rx         0112  8  FD 1F 54 0F 54 01 65 62 
   278)      1184.9  Rx         01A1  5  7C CB 00 00 8A 
   279)      1185.2  Rx         03B4  8  00 00 0C F0 98 FF 00 00 
   280)      1195.7  Rx         0112  8  FD 1F 54 0F 54 01 65 62 
   281)      1206.7  Rx         0112  8  FD 1F 54 0F 54 01 65 62 
   282)      1206.9  Rx         01A1  5  7C CB 00 00 8A 
   283)      1217.7  Rx         0112  8  FD 1F 54 0F 54 01 65 62 
   284)      1220.2  Rx         0272  8  A3 F9 00 12 FF FF FF FF 
   285)      1222.7  Rx         003C  8  FF 5F 00 00 00 00 FF FF 
   286)      1223.7  Rx         03E9  8  08 52 00 00 00 00 00 00 
   287)      1224.7  Rx         0431  8  CA FF 0B 02 69 26 F3 4B 
   288)      1225.7  Rx         012F  8  F5 28 8A 1D F1 35 30 80 
   289)      1226.7  Rx         02F1  8  9A 10 00 00 00 00 00 A0 
   290)      1227.8  Rx         0560  8  00 00 00 00 FE 00 00 60 
   291)      1228.0  Rx         02FA  8  FD FF 00 FF FF FF FF FF 
   292)      1228.7  Rx         0432  8  2C E2 10 A3 44 FF 02 FF 
   293)      1229.7  Rx         051A  8  00 00 00 00 50 00 00 1A 
   294)      1230.7  Rx         0540  8  00 00 00 00 FD 3C FF 40 
   295)      1231.7  Rx         0510  8  40 10 20 00 00 00 00 00 
   296)      1232.8  Rx         0112  8  FD 1F 54 0F 54 01 65 62 
   297)      1232.9  Rx         01A1  5  7C CB 00 00 8A 
   298)      1243.7  Rx         0112  8  FD 1F 54 0F 54 01 65 62 
   299)      1254.7  Rx         0112  8  FD 1F 55 0F 54 01 65 62 
   300)      1254.9  Rx         01A1  5  7C CB 00 00 8A 
   301)      1265.7  Rx         0112  8  FD 1F 55 0F 54 01 65 62 
   302)      1276.7  Rx         0112  8  FD 1F 55 0F 54 01 65 62 
   303)      1276.9  Rx         01A1  5  7C CB 00 00 8A 
   304)      1287.7  Rx         0112  8  FD 1F 55 0F 54 01 65 62 
   305)      1298.7  Rx         0112  8  FD 1F 55 0F 54 01 65 62 
   306)      1298.9  Rx         01A1  5  7C CB 00 00 8A 
   307)      1309.7  Rx         0112  8  FD 1F 55 0F 54 01 65 62 
   308)      1320.7  Rx         0112  8  FD 1F 55 0F 54 01 65 62 
   309)      1320.9  Rx         01A1  5  7C CB 00 00 8A 
   310)      1323.8  Rx         003C  8  FF 5F 00 00 00 00 FF FF 
   311)      1324.7  Rx         03E9  8  08 52 00 00 00 00 00 00 
   312)      1325.7  Rx         0431  8  CA FF 0B 02 69 26 F3 4B 
   313)      1326.7  Rx         012F  8  F5 28 8A 1D F1 35 30 80 
   314)      1327.8  Rx         02F1  8  9A 10 00 00 00 00 00 A0 
   315)      1328.7  Rx         0560  8  00 00 00 00 FE 00 00 60 
   316)      1331.7  Rx         0112  8  FD 1F 55 0F 54 01 65 62 
   317)      1342.7  Rx         0112  8  FD 1F 55 0F 54 01 65 62 
   318)      1342.9  Rx         01A1  5  7C CB 00 00 8A 
   319)      1353.8  Rx         0112  8  FD 1F 55 0F 54 01 65 62 
   320)      1364.7  Rx         0112  8  FD 1F 55 0F 54 01 65 62 
   321)      1364.9  Rx         01A1  5  7C CB 00 00 8A 
   322)      1375.7  Rx         0112  8  FD 1F 55 0F 54 01 65 62 
   323)      1385.0  Rx         03B4  8  00 00 0C F0 98 FF 00 00 
   324)      1386.7  Rx         0112  8  FD 1F 55 0F 54 01 65 62 
   325)      1386.9  Rx         01A1  5  7C CB 00 00 8A 
   326)      1397.7  Rx         0112  8  FD 1F 55 0F 54 01 65 62 
   327)      1408.7  Rx         0112  8  FD 1F 55 0F 54 01 65 62 
   328)      1408.9  Rx         01A1  5  7C CB 00 00 8A 
   329)      1419.8  Rx         0112  8  FD 1F 55 0F 54 01 65 62 
   330)      1420.2  Rx         0272  8  44 FA 00 12 FF FF FF FF 
   331)      1424.7  Rx         003C  8  FF 5F 00 00 00 00 FF FF 
   332)      1425.8  Rx         03E9  8  08 52 00 00 00 00 00 00 
   333)      1426.8  Rx         0431  8  CA FF 0B 02 69 26 F3 4B 
   334)      1427.7  Rx         012F  8  F5 28 8A 1D F1 35 30 80 
   335)      1428.8  Rx         02F1  8  9A 10 00 00 00 00 00 A0 
   336)      1429.8  Rx         0560  8  00 00 00 00 FE 00 00 60 
   337)      1430.0  Rx         02FA  8  FD FF 00 FF FF FF FF FF 
   338)      1430.8  Rx         0432  8  2C E2 10 A3 44 FF 02 FF 
   339)      1431.8  Rx         051A  8  00 00 00 00 50 00 00 1A 
   340)      1432.8  Rx         0540  8  00 00 00 00 FD 3C FF 40 
   341)      1433.8  Rx         0510  8  40 10 20 00 00 00 00 00 
   342)      1434.7  Rx         0328  6  E7 00 00 00 87 1E 
   343)      1435.7  Rx         03E8  2  F1 FF 
   344)      1436.8  Rx         03F9  8  C0 F9 80 E0 43 3C C3 FF 
   345)      1437.8  Rx         0112  8  FD 1F 55 0F 54 01 65 62 
   346)      1438.0  Rx         01A1  5  7C CB 00 00 8A 
   347)      1448.7  Rx         0112  8  FD 1F 55 0F 54 01 65 62 
   348)      1459.7  Rx         0112  8  FD 1F 55 0F 54 01 65 62 
   349)      1459.9  Rx         01A1  5  7C CB 00 00 8A 
   350)      1470.7  Rx         0112  8  FD 1F 55 0F 54 01 65 62 
   351)      1481.7  Rx         0112  8  FD 1F 55 0F 54 01 65 62 
   352)      1481.9  Rx         01A1  5  7C CB 00 00 8A 
   353)      1492.7  Rx         0112  8  FD 1F 55 0F 54 01 65 62 
   354)      1503.8  Rx         0112  8  FD 1F 55 0F 54 01 65 62 
   355)      1503.9  Rx         01A1  5  7C CB 00 00 8A 
   356)      1514.7  Rx         0112  8  FD 1F 55 0F 54 01 65 62 
   357)      1525.7  Rx         0112  8  FD 1F 55 0F 54 01 65 62 
   358)      1526.0  Rx         003C  8  FF 5F 00 00 00 00 FF FF 
   359)      1526.2  Rx         01A1  5  7C CB 00 00 8A 
   360)      1526.8  Rx         03E9  8  08 52 00 00 00 00 00 00 
   361)      1527.7  Rx         0431  8  CA FF 0B 02 69 26 F3 4B 
   362)      1528.7  Rx         012F  8  F5 28 8A 1D F1 35 30 80 
   363)      1529.7  Rx         02F1  8  9A 10 00 00 00 00 00 A0 
   364)      1530.8  Rx         0560  8  00 00 00 00 FE 00 00 60 
   365)      1536.7  Rx         0112  8  FD 1F 55 0F 54 01 65 62 
   366)      1547.7  Rx         0112  8  FD 1F 55 0F 54 01 65 62 
   367)      1547.9  Rx         01A1  5  7C CB 00 00 8A 
   368)      1558.7  Rx         0112  8  FD 1F 55 0F 54 01 65 62 
   369)      1569.7  Rx         0112  8  FD 1F 55 0F 54 01 65 62 
   370)      1569.9  Rx         01A1  5  7C CB 00 00 8A 
   371)      1580.7  Rx         0112  8  FD 1F 55 0F 54 01 65 62 
   372)      1585.0  Rx         0337  2  FF FF 
   373)      1585.3  Rx         03B4  8  00 00 0C F0 98 FF 00 00 
   374)      1591.7  Rx         0112  8  FD 1F 55 0F 54 01 65 62 
   375)      1591.9  Rx         01A1  5  7C CB 00 00 8A 
   376)      1602.7  Rx         0112  8  FD 1F 55 0F 54 01 65 62 
   377)      1613.7  Rx         0112  8  FD 1F 55 0F 54 01 65 62 
   378)      1613.9  Rx         01A1  5  7C CB 00 00 8A 
   379)      1620.3  Rx         0272  8  19 FB 00 12 FF FF FF FF 
   380)      1624.7  Rx         0112  8  FD 1F 55 0F 54 01 65 62 
   381)      1626.7  Rx         003C  8  FF 5F 00 00 00 00 FF FF 
   382)      1627.8  Rx         03E9  8  08 52 00 00 00 00 00 00 
