;$FILEVERSION=1.1
;$STARTTIME=44834.6963302894
;
;   Start time: 30.9.2022 16.42.42.937.0
;   Generated by PCAN-View v5.0.2.838
;
;   Message Number
;   |         Time Offset (ms)
;   |         |        Type
;   |         |        |        ID (hex)
;   |         |        |        |     Data Length
;   |         |        |        |     |   Data Bytes (hex) ...
;   |         |        |        |     |   |
;---+--   ----+----  --+--  ----+---  +  -+ -- -- -- -- -- -- --
     1)         7.1  Rx         0112  8  FD 1F 63 0F 7C 01 65 62 
     2)        18.0  Rx         0112  8  FD 1F 63 0F 7C 01 65 62 
     3)        18.3  Rx         01A1  5  7C CB 00 00 8A 
     4)        27.8  Rx         03C3  8  81 20 49 92 24 00 00 00 
     5)        29.1  Rx         0112  8  FD 1F 63 0F 7C 01 65 62 
     6)        40.1  Rx         0112  8  FD 1F 63 0F 7C 01 65 62 
     7)        40.2  Rx         01A1  5  7C CB 00 00 8A 
     8)        42.7  Rx         03B4  8  00 00 0C F0 B8 FF 00 00 
     9)        51.1  Rx         0112  8  FD 1F 63 0F 7C 01 65 62 
    10)        62.1  Rx         0112  8  FD 1F 63 0F 7C 01 65 62 
    11)        62.2  Rx         01A1  5  7C CB 00 00 8A 
    12)        73.1  Rx         0112  8  FD 1F 63 0F 7C 01 65 62 
    13)        82.7  Rx         0272  8  96 F2 00 12 FF FF FF FF 
    14)        84.1  Rx         0112  8  FD 1F 63 0F 7C 01 65 62 
    15)        84.3  Rx         01A1  5  7C CB 00 00 8A 
    16)        87.1  Rx         003C  8  FF 5F 00 00 00 00 FF FF 
    17)        88.1  Rx         03E9  8  16 00 00 00 00 00 00 00 
    18)        89.1  Rx         0431  8  CA FF 0B 02 69 26 F3 4B 
    19)        90.1  Rx         012F  8  F5 28 8A 1D F1 35 30 80 
    20)        91.1  Rx         02F1  8  B8 11 96 41 09 E9 06 A0 
    21)        92.1  Rx         0560  8  00 00 00 00 FE 00 00 60 
    22)        95.1  Rx         0112  8  FD 1F 63 0F 7C 01 65 62 
    23)       106.1  Rx         0112  8  FD 1F 63 0F 7C 01 65 62 
    24)       106.3  Rx         01A1  5  7C CB 00 00 8A 
    25)       117.1  Rx         0112  8  FD 1F 63 0F 7C 01 65 62 
    26)       128.1  Rx         0112  8  FD 1F 63 0F 7C 01 65 62 
    27)       128.2  Rx         01A1  5  7C CB 00 00 8A 
    28)       139.1  Rx         0112  8  FD 1F 63 0F 7C 01 65 62 
    29)       150.1  Rx         0112  8  FD 1F 63 0F 7C 01 65 62 
    30)       150.3  Rx         01A1  5  7C CB 00 00 8A 
    31)       161.1  Rx         0112  8  FD 1F 63 0F 7C 01 65 62 
    32)       172.1  Rx         0112  8  FD 1F 63 0F 7C 01 65 62 
    33)       172.2  Rx         01A1  5  7C CB 00 00 8A 
    34)       183.1  Rx         0112  8  FD 1F 63 0F 7C 01 65 62 
    35)       188.1  Rx         003C  8  FF 5F 00 00 00 00 FF FF 
    36)       189.1  Rx         03E9  8  16 00 00 00 00 00 00 00 
    37)       190.1  Rx         0431  8  CA FF 0B 02 69 26 F3 4B 
    38)       191.1  Rx         012F  8  F5 28 8A 1D F1 35 30 80 
    39)       192.1  Rx         02F1  8  B8 11 96 41 09 E9 06 A0 
    40)       193.1  Rx         0560  8  00 00 00 00 FE 00 00 60 
    41)       193.4  Rx         02FA  8  FD FF 00 00 FF FF FF FF 
    42)       194.1  Rx         0432  8  2C E2 10 A3 4C FF 02 FF 
    43)       195.1  Rx         051A  8  00 00 00 00 50 00 00 1A 
    44)       196.1  Rx         0540  8  00 00 00 00 FD 3C FF 40 
    45)       197.1  Rx         0510  8  40 10 20 00 00 00 00 00 
    46)       198.1  Rx         0112  8  FD 1F 63 0F 7C 01 65 62 
    47)       198.3  Rx         01A1  5  7C CB 00 00 8A 
    48)       209.1  Rx         0112  8  FD 1F 63 0F 7C 01 65 62 
    49)       220.1  Rx         0112  8  FD 1F 63 0F 7C 01 65 62 
    50)       220.2  Rx         01A1  5  7C CB 00 00 8A 
    51)       231.1  Rx         0112  8  FD 1F 63 0F 7C 01 65 62 
    52)       242.1  Rx         0112  8  FD 1F 63 0F 7C 01 65 62 
    53)       242.3  Rx         01A1  5  7C CB 00 00 8A 
    54)       243.0  Rx         03B4  8  00 00 0C F0 B8 FF 00 00 
    55)       253.0  Rx         0112  8  FD 1F 63 0F 7C 01 65 62 
    56)       264.1  Rx         0112  8  FD 1F 63 0F 7C 01 65 62 
    57)       264.3  Rx         01A1  5  7C CB 00 00 8A 
    58)       275.1  Rx         0112  8  FD 1F 63 0F 7C 01 65 62 
    59)       283.0  Rx         0272  8  CB F3 00 12 FF FF FF FF 
    60)       286.1  Rx         0112  8  FD 1F 63 0F 7C 01 65 62 
    61)       286.3  Rx         01A1  5  7C CB 00 00 8A 
    62)       289.1  Rx         003C  8  FF 5F 00 00 00 00 FF FF 
    63)       290.1  Rx         03E9  8  16 00 00 00 00 00 00 00 
    64)       291.1  Rx         0431  8  CA FF 0B 02 69 26 F3 4B 
    65)       292.0  Rx         012F  8  F5 28 8A 1D F1 35 30 80 
    66)       293.1  Rx         02F1  8  B8 11 96 41 09 E9 06 A0 
    67)       294.1  Rx         0560  8  00 00 00 00 FE 00 00 60 
    68)       297.1  Rx         0112  8  FD 1F 63 0F 7C 01 65 62 
    69)       308.1  Rx         0112  8  FD 1F 63 0F 7C 01 65 62 
    70)       308.3  Rx         01A1  5  7C CB 00 00 8A 
    71)       319.1  Rx         0112  8  FD 1F 63 0F 7C 01 65 62 
    72)       330.1  Rx         0112  8  FD 1F 63 0F 7C 01 65 62 
    73)       330.3  Rx         01A1  5  7C CB 00 00 8A 
    74)       341.1  Rx         0112  8  FD 1F 63 0F 7C 01 65 62 
    75)       352.1  Rx         0112  8  FD 1F 63 0F 7C 01 65 62 
    76)       352.2  Rx         01A1  5  7C CB 00 00 8A 
    77)       363.0  Rx         0112  8  FD 1F 63 0F 7C 01 65 62 
    78)       374.1  Rx         0112  8  FD 1F 63 0F 7C 01 65 62 
    79)       374.3  Rx         01A1  5  7C CB 00 00 8A 
    80)       385.1  Rx         0112  8  FD 1F 63 0F 7C 01 65 62 
    81)       390.1  Rx         003C  8  FF 5F 00 00 00 00 FF FF 
    82)       391.1  Rx         03E9  8  16 00 00 00 00 00 00 00 
    83)       392.1  Rx         0431  8  CA FF 0B 02 69 26 F3 4B 
    84)       393.1  Rx         012F  8  F5 28 8A 1D F1 35 30 80 
    85)       394.1  Rx         02F1  8  B8 11 96 41 09 E9 06 A0 
    86)       395.1  Rx         0560  8  00 00 00 00 FE 00 00 60 
    87)       395.3  Rx         02FA  8  FD FF 00 00 FF FF FF FF 
    88)       396.1  Rx         0432  8  2C E2 10 A3 4C FF 02 FF 
    89)       397.1  Rx         051A  8  00 00 00 00 50 00 00 1A 
    90)       398.1  Rx         0540  8  00 00 00 00 FD 3C FF 40 
    91)       399.1  Rx         0510  8  40 10 20 00 00 00 00 00 
    92)       400.1  Rx         0112  8  FD 1F 63 0F 7C 01 65 62 
    93)       400.3  Rx         01A1  5  7C CB 00 00 8A 
    94)       411.1  Rx         0112  8  FD 1F 63 0F 7C 01 65 62 
    95)       422.1  Rx         0112  8  FD 1F 63 0F 7C 01 65 62 
    96)       422.3  Rx         01A1  5  7C CB 00 00 8A 
    97)       433.1  Rx         0112  8  FD 1F 63 0F 7C 01 65 62 
    98)       443.2  Rx         0337  2  FF FF 
    99)       443.5  Rx         03B4  8  00 00 0C F0 B8 FF 00 00 
   100)       444.1  Rx         0112  8  FD 1F 63 0F 7C 01 65 62 
   101)       444.3  Rx         01A1  5  7C CB 00 00 8A 
   102)       455.1  Rx         0112  8  FD 1F 63 0F 7C 01 65 62 
   103)       466.1  Rx         0112  8  FD 1F 63 0F 7C 01 65 62 
   104)       466.3  Rx         01A1  5  7C CB 00 00 8A 
   105)       477.1  Rx         0112  8  FD 1F 63 0F 7C 01 65 62 
   106)       483.4  Rx         0272  8  45 F4 00 12 FF FF FF FF 
   107)       488.1  Rx         0112  8  FD 1F 63 0F 7C 01 65 62 
   108)       488.3  Rx         01A1  5  7C CB 00 00 8A 
   109)       491.1  Rx         003C  8  FF 5F 00 00 00 00 FF FF 
   110)       492.1  Rx         03E9  8  16 00 00 00 00 00 00 00 
   111)       493.1  Rx         0431  8  CA FF 0B 02 69 26 F3 4B 
   112)       494.1  Rx         012F  8  F5 28 8A 1D F1 35 30 80 
   113)       495.1  Rx         02F1  8  B8 11 96 41 09 E9 06 A0 
   114)       496.1  Rx         0560  8  00 00 00 00 FE 00 00 60 
   115)       499.1  Rx         0112  8  FD 1F 63 0F 7C 01 65 62 
   116)       510.1  Rx         0112  8  FD 1F 63 0F 7C 01 65 62 
   117)       510.3  Rx         01A1  5  7C CB 00 00 8A 
   118)       521.1  Rx         0112  8  FD 1F 63 0F 7C 01 65 62 
   119)       532.1  Rx         0112  8  FD 1F 63 0F 7C 01 65 62 
   120)       532.3  Rx         01A1  5  7C CB 00 00 8A 
   121)       543.1  Rx         0112  8  FD 1F 63 0F 7C 01 65 62 
   122)       554.1  Rx         0112  8  FD 1F 63 0F 7C 01 65 62 
   123)       554.3  Rx         01A1  5  7C CB 00 00 8A 
   124)       565.1  Rx         0112  8  FD 1F 63 0F 7C 01 65 62 
   125)       576.1  Rx         0112  8  FD 1F 63 0F 7C 01 65 62 
   126)       576.3  Rx         01A1  5  7C CB 00 00 8A 
   127)       587.1  Rx         0112  8  FD 1F 63 0F 7C 01 65 62 
   128)       592.1  Rx         003C  8  FF 5F 00 00 00 00 FF FF 
   129)       593.1  Rx         03E9  8  16 00 00 00 00 00 00 00 
   130)       594.1  Rx         0431  8  CA FF 0B 02 69 26 F3 4B 
   131)       595.1  Rx         012F  8  F5 28 8A 1D F1 35 30 80 
   132)       596.1  Rx         02F1  8  B8 11 96 41 09 E9 06 A0 
   133)       597.1  Rx         0560  8  00 00 00 00 FE 00 00 60 
   134)       597.3  Rx         02FA  8  FD FF 00 00 FF FF FF FF 
   135)       598.1  Rx         0432  8  2C E2 10 A3 4C FF 02 FF 
   136)       599.1  Rx         051A  8  00 00 00 00 50 00 00 1A 
   137)       600.1  Rx         0540  8  00 00 00 00 FD 3C FF 40 
   138)       601.1  Rx         0510  8  40 10 20 00 00 00 00 00 
   139)       602.1  Rx         0328  6  1E 00 00 00 87 1E 
   140)       603.0  Rx         03E8  2  F1 FF 
   141)       604.1  Rx         03F9  8  C0 F9 80 E0 43 3C C3 FF 
   142)       605.2  Rx         0112  8  FD 1F 63 0F 7C 01 65 62 
   143)       605.3  Rx         01A1  5  7C CB 00 00 8A 
   144)       616.1  Rx         0112  8  FD 1F 63 0F 7C 01 65 62 
   145)       627.1  Rx         0112  8  FD 1F 63 0F 7C 01 65 62 
   146)       627.3  Rx         01A1  5  7C CB 00 00 8A 
   147)       638.1  Rx         0112  8  FD 1F 63 0F 7C 01 65 62 
   148)       643.7  Rx         03B4  8  00 00 0C F0 B8 FF 00 00 
   149)       649.1  Rx         0112  8  FD 1F 63 0F 7C 01 65 62 
   150)       649.3  Rx         01A1  5  7C CB 00 00 8A 
   151)       660.1  Rx         0112  8  FD 1F 63 0F 7C 01 65 62 
   152)       671.1  Rx         0112  8  FD 1F 63 0F 7C 01 65 62 
   153)       671.3  Rx         01A1  5  7C CB 00 00 8A 
   154)       682.1  Rx         0112  8  FD 1F 63 0F 7C 01 65 62 
   155)       683.7  Rx         0272  8  18 F5 00 12 FF FF FF FF 
   156)       693.1  Rx         0112  8  FD 1F 63 0F 7C 01 65 62 
   157)       693.4  Rx         003C  8  FF 5F 00 00 00 00 FF FF 
   158)       693.6  Rx         01A1  5  7C CB 00 00 8A 
   159)       694.2  Rx         03E9  8  16 00 00 00 00 00 00 00 
   160)       695.1  Rx         0431  8  CA FF 0B 02 69 26 F3 4B 
   161)       696.1  Rx         012F  8  F5 28 8A 1D F1 35 30 80 
   162)       697.1  Rx         02F1  8  B8 11 96 41 09 E9 06 A0 
   163)       698.2  Rx         0560  8  00 00 00 00 FE 00 00 60 
   164)       704.1  Rx         0112  8  FD 1F 63 0F 7C 01 65 62 
   165)       715.1  Rx         0112  8  FD 1F 63 0F 7C 01 65 62 
   166)       715.3  Rx         01A1  5  7C CB 00 00 8A 
   167)       726.1  Rx         0112  8  FD 1F 63 0F 7C 01 65 62 
   168)       737.1  Rx         0112  8  FD 1F 63 0F 7C 01 65 62 
   169)       737.3  Rx         01A1  5  7C CB 00 00 8A 
   170)       748.1  Rx         0112  8  FD 1F 63 0F 7C 01 65 62 
   171)       759.1  Rx         0112  8  FD 1F 63 0F 7C 01 65 62 
   172)       759.3  Rx         01A1  5  7C CB 00 00 8A 
   173)       770.1  Rx         0112  8  FE 1F 63 0F 7C 01 65 62 
   174)       781.1  Rx         0112  8  FE 1F 63 0F 7C 01 65 62 
   175)       781.3  Rx         01A1  5  7C CB 00 00 8A 
   176)       792.1  Rx         0112  8  FE 1F 63 0F 7C 01 65 62 
   177)       794.1  Rx         003C  8  FF 5F 00 00 00 00 FF FF 
   178)       795.1  Rx         03E9  8  16 00 00 00 00 00 00 00 
   179)       796.1  Rx         0431  8  CA FF 0B 02 69 26 F3 4B 
   180)       797.1  Rx         012F  8  F5 28 8A 1D F1 35 30 80 
   181)       798.1  Rx         02F1  8  B8 11 96 41 09 E9 06 A0 
   182)       799.1  Rx         0560  8  00 00 00 00 FE 00 00 60 
   183)       799.4  Rx         02FA  8  FD FF 00 00 FF FF FF FF 
   184)       800.1  Rx         0432  8  2C E2 10 A3 4C FF 02 FF 
   185)       801.1  Rx         051A  8  00 00 00 00 50 00 00 1A 
   186)       802.1  Rx         0540  8  00 00 00 00 FD 3C FF 40 
   187)       803.1  Rx         0510  8  40 10 20 00 00 00 00 00 
   188)       804.1  Rx         0112  8  FE 1F 63 0F 7C 01 65 62 
   189)       804.3  Rx         01A1  5  7C CB 00 00 8A 
   190)       815.1  Rx         0112  8  FE 1F 63 0F 7C 01 65 62 
   191)       826.1  Rx         0112  8  FE 1F 63 0F 7C 01 65 62 
   192)       826.3  Rx         01A1  5  7C CB 00 00 8A 
   193)       837.1  Rx         0112  8  FE 1F 63 0F 7C 01 65 62 
   194)       844.0  Rx         03B4  8  00 00 0C F0 B8 FF 00 00 
   195)       848.1  Rx         0112  8  FE 1F 63 0F 7C 01 65 62 
   196)       848.3  Rx         01A1  5  7C CB 00 00 8A 
   197)       859.1  Rx         0112  8  FE 1F 63 0F 7C 01 65 62 
   198)       870.1  Rx         0112  8  FE 1F 63 0F 7C 01 65 62 
   199)       870.3  Rx         01A1  5  7C CB 00 00 8A 
   200)       881.1  Rx         0112  8  FE 1F 63 0F 7C 01 65 62 
   201)       884.1  Rx         0272  8  FF F6 00 12 FF FF FF FF 
   202)       892.1  Rx         0112  8  FE 1F 63 0F 7C 01 65 62 
   203)       892.3  Rx         01A1  5  7C CB 00 00 8A 
   204)       895.1  Rx         003C  8  FF 5F 00 00 00 00 FF FF 
   205)       896.1  Rx         03E9  8  16 00 00 00 00 00 00 00 
   206)       897.1  Rx         0431  8  CA FF 0B 02 69 26 F3 4B 
   207)       898.1  Rx         012F  8  F5 28 8A 1D F1 35 30 80 
   208)       899.1  Rx         02F1  8  B8 11 96 41 09 E9 06 A0 
   209)       900.1  Rx         0560  8  00 00 00 00 FE 00 00 60 
   210)       903.1  Rx         0112  8  FE 1F 63 0F 7C 01 65 62 
   211)       914.1  Rx         0112  8  FE 1F 63 0F 7C 01 65 62 
   212)       914.3  Rx         01A1  5  7C CB 00 00 8A 
   213)       925.1  Rx         0112  8  FE 1F 63 0F 7C 01 65 62 
   214)       936.1  Rx         0112  8  FE 1F 63 0F 7C 01 65 62 
   215)       936.3  Rx         01A1  5  7C CB 00 00 8A 
   216)       947.1  Rx         0112  8  FE 1F 63 0F 7C 01 65 62 
   217)       958.1  Rx         0112  8  FE 1F 63 0F 7C 01 65 62 
   218)       958.3  Rx         01A1  5  7C CB 00 00 8A 
   219)       969.1  Rx         0112  8  FE 1F 63 0F 7C 01 65 62 
   220)       980.1  Rx         0112  8  FE 1F 63 0F 7C 01 65 62 
   221)       980.3  Rx         01A1  5  7C CB 00 00 8A 
   222)       989.3  Rx         03C3  8  82 04 C8 B0 08 C1 00 18 
   223)       991.1  Rx         0112  8  FE 1F 63 0F 7C 01 65 62 
   224)       996.1  Rx         003C  8  FF 5F 00 00 00 00 FF FF 
   225)       997.1  Rx         03E9  8  16 00 00 00 00 00 00 00 
   226)       998.1  Rx         0431  8  CA FF 0B 02 69 26 F3 4B 
   227)       999.1  Rx         012F  8  F5 28 8A 1D F1 35 30 80 
   228)      1000.1  Rx         02F1  8  B8 11 96 41 09 E9 06 A0 
   229)      1001.1  Rx         0560  8  00 00 00 00 FE 00 00 60 
   230)      1001.4  Rx         02FA  8  FD FF 00 00 FF FF FF FF 
   231)      1002.1  Rx         0432  8  2C E2 10 A3 4C FF 02 FF 
   232)      1003.1  Rx         051A  8  00 00 00 00 50 00 00 1A 
   233)      1004.2  Rx         0540  8  00 00 00 00 FD 3C FF 40 
   234)      1005.1  Rx         0510  8  40 10 20 00 00 00 00 00 
   235)      1006.2  Rx         0112  8  FE 1F 63 0F 7C 01 65 62 
   236)      1006.3  Rx         01A1  5  7C CB 00 00 8A 
   237)      1017.1  Rx         0112  8  FE 1F 63 0F 7C 01 65 62 
   238)      1028.1  Rx         0112  8  FE 1F 63 0F 7C 01 65 62 
   239)      1028.3  Rx         01A1  5  7C CB 00 00 8A 
   240)      1039.1  Rx         0112  8  FE 1F 63 0F 7C 01 65 62 
   241)      1044.3  Rx         03B4  8  00 00 0C F0 B8 FF 00 00 
   242)      1050.1  Rx         0112  8  FE 1F 63 0F 7C 01 65 62 
   243)      1050.3  Rx         01A1  5  7C CB 00 00 8A 
   244)      1061.1  Rx         0112  8  FE 1F 63 0F 7C 01 65 62 
   245)      1072.1  Rx         0112  8  FE 1F 63 0F 7C 01 65 62 
   246)      1072.3  Rx         01A1  5  7C CB 00 00 8A 
   247)      1083.1  Rx         0112  8  FE 1F 63 0F 7C 01 65 62 
   248)      1084.4  Rx         0272  8  A2 F7 00 12 FF FF FF FF 
   249)      1094.1  Rx         0112  8  FE 1F 63 0F 7C 01 65 62 
   250)      1094.3  Rx         01A1  5  7C CB 00 00 8A 
   251)      1097.1  Rx         003C  8  FF 5F 00 00 00 00 FF FF 
   252)      1098.1  Rx         03E9  8  16 00 00 00 00 00 00 00 
   253)      1099.1  Rx         0431  8  CA FF 0B 02 69 26 F3 4B 
   254)      1100.1  Rx         012F  8  F5 28 8A 1D F1 35 30 80 
   255)      1101.1  Rx         02F1  8  B8 11 96 41 09 E9 06 A0 
   256)      1102.1  Rx         0560  8  00 00 00 00 FE 00 00 60 
   257)      1105.1  Rx         0112  8  FE 1F 63 0F 7C 01 65 62 
   258)      1116.1  Rx         0112  8  FE 1F 63 0F 7C 01 65 62 
   259)      1116.3  Rx         01A1  5  7C CB 00 00 8A 
   260)      1127.1  Rx         0112  8  FE 1F 63 0F 7C 01 65 62 
   261)      1138.1  Rx         0112  8  FE 1F 63 0F 7C 01 65 62 
   262)      1138.3  Rx         01A1  5  7C CB 00 00 8A 
   263)      1149.1  Rx         0112  8  FE 1F 63 0F 7C 01 65 62 
   264)      1160.1  Rx         0112  8  FE 1F 63 0F 7C 01 65 62 
   265)      1160.3  Rx         01A1  5  7C CB 00 00 8A 
   266)      1171.1  Rx         0112  8  FE 1F 63 0F 7C 01 65 62 
   267)      1182.1  Rx         0112  8  FE 1F 63 0F 7C 01 65 62 
   268)      1182.3  Rx         01A1  5  7C CB 00 00 8A 
   269)      1193.1  Rx         0112  8  FE 1F 63 0F 7C 01 65 62 
   270)      1198.1  Rx         003C  8  FF 5F 00 00 00 00 FF FF 
   271)      1199.1  Rx         03E9  8  16 00 00 00 00 00 00 00 
   272)      1200.1  Rx         0431  8  CA FF 0B 02 69 26 F3 4B 
   273)      1201.1  Rx         012F  8  F5 28 8A 1D F1 35 30 80 
   274)      1202.1  Rx         02F1  8  B8 11 96 41 09 E9 06 A0 
   275)      1203.1  Rx         0560  8  00 00 00 00 FE 00 00 60 
   276)      1203.4  Rx         02FA  8  FD FF 00 00 FF FF FF FF 
   277)      1204.1  Rx         0432  8  2C E2 10 A3 4C FF 02 FF 
   278)      1205.1  Rx         051A  8  00 00 00 00 50 00 00 1A 
   279)      1206.1  Rx         0540  8  00 00 00 00 FD 3C FF 40 
   280)      1207.1  Rx         0510  8  40 10 20 00 00 00 00 00 
   281)      1208.2  Rx         0112  8  FE 1F 63 0F 7C 01 65 62 
   282)      1208.3  Rx         01A1  5  7C CB 00 00 8A 
   283)      1219.1  Rx         0112  8  FE 1F 63 0F 7C 01 65 62 
   284)      1230.1  Rx         0112  8  FE 1F 63 0F 7C 01 65 62 
   285)      1230.3  Rx         01A1  5  7C CB 00 00 8A 
   286)      1241.1  Rx         0112  8  FE 1F 63 0F 7C 01 65 62 
   287)      1244.7  Rx         03B4  8  00 00 0C F0 B8 FF 00 00 
   288)      1252.1  Rx         0112  8  FE 1F 63 0F 7C 01 65 62 
   289)      1252.3  Rx         01A1  5  7C CB 00 00 8A 
   290)      1263.1  Rx         0112  8  FE 1F 63 0F 7C 01 65 62 
   291)      1274.1  Rx         0112  8  FD 1F 63 0F 7C 01 65 62 
   292)      1274.3  Rx         01A1  5  7C CB 00 00 8A 
   293)      1284.7  Rx         0272  8  FE F8 00 12 FF FF FF FF 
   294)      1285.1  Rx         0112  8  FD 1F 63 0F 7C 01 65 62 
   295)      1296.1  Rx         0112  8  FD 1F 63 0F 7C 01 65 62 
   296)      1296.3  Rx         01A1  5  7C CB 00 00 8A 
   297)      1299.1  Rx         003C  8  FF 5F 00 00 00 00 FF FF 
   298)      1300.1  Rx         03E9  8  16 00 00 00 00 00 00 00 
   299)      1301.1  Rx         0431  8  CA FF 0B 02 69 26 F3 4B 
   300)      1302.1  Rx         012F  8  F5 28 8A 1D F1 35 30 80 
   301)      1303.1  Rx         02F1  8  B8 11 96 41 09 E9 06 A0 
   302)      1304.1  Rx         0560  8  00 00 00 00 FE 00 00 60 
   303)      1307.1  Rx         0112  8  FD 1F 63 0F 7C 01 65 62 
   304)      1318.1  Rx         0112  8  FD 1F 63 0F 7C 01 65 62 
   305)      1318.3  Rx         01A1  5  7C CB 00 00 8A 
   306)      1329.1  Rx         0112  8  FD 1F 63 0F 7C 01 65 62 
   307)      1340.1  Rx         0112  8  FD 1F 63 0F 7C 01 65 62 
   308)      1340.3  Rx         01A1  5  7C CB 00 00 8A 
   309)      1351.1  Rx         0112  8  FD 1F 63 0F 7C 01 65 62 
   310)      1362.1  Rx         0112  8  FD 1F 63 0F 7C 01 65 62 
   311)      1362.3  Rx         01A1  5  7C CB 00 00 8A 
   312)      1373.1  Rx         0112  8  FD 1F 63 0F 7C 01 65 62 
   313)      1384.1  Rx         0112  8  FD 1F 63 0F 7C 01 65 62 
   314)      1384.3  Rx         01A1  5  7C CB 00 00 8A 
   315)      1395.1  Rx         0112  8  FD 1F 63 0F 7C 01 65 62 
   316)      1400.1  Rx         003C  8  FF 5F 00 00 00 00 FF FF 
   317)      1401.1  Rx         03E9  8  16 00 00 00 00 00 00 00 
   318)      1402.1  Rx         0431  8  CA FF 0B 02 69 26 F3 4B 
   319)      1403.1  Rx         012F  8  F5 28 8A 1D F1 35 30 80 
   320)      1404.1  Rx         02F1  8  B8 11 96 41 09 E9 06 A0 
   321)      1405.1  Rx         0560  8  00 00 00 00 FE 00 00 60 
   322)      1405.4  Rx         02FA  8  FD FF 00 00 FF FF FF FF 
   323)      1406.1  Rx         0432  8  2C E2 10 A3 4C FF 02 FF 
   324)      1407.1  Rx         051A  8  00 00 00 00 50 00 00 1A 
   325)      1408.1  Rx         0540  8  00 00 00 00 FD 3C FF 40 
   326)      1409.1  Rx         0510  8  40 10 20 00 00 00 00 00 
   327)      1410.1  Rx         0112  8  FD 1F 63 0F 7C 01 65 62 
   328)      1410.3  Rx         01A1  5  7C CB 00 00 8A 
   329)      1421.1  Rx         0112  8  FD 1F 63 0F 7C 01 65 62 
   330)      1432.1  Rx         0112  8  FD 1F 63 0F 7C 01 65 62 
   331)      1432.3  Rx         01A1  5  7C CB 00 00 8A 
   332)      1443.1  Rx         0112  8  FD 1F 63 0F 7C 01 65 62 
   333)      1444.9  Rx         0337  2  FF FF 
   334)      1445.2  Rx         03B4  8  00 00 0C F0 B8 FF 00 00 
   335)      1454.1  Rx         0112  8  FD 1F 63 0F 7C 01 65 62 
   336)      1454.3  Rx         01A1  5  7C CB 00 00 8A 
   337)      1465.1  Rx         0112  8  FD 1F 63 0F 7C 01 65 62 
   338)      1476.1  Rx         0112  8  FD 1F 63 0F 7C 01 65 62 
   339)      1476.3  Rx         01A1  5  7C CB 00 00 8A 
   340)      1485.0  Rx         0272  8  A3 F9 00 12 FF FF FF FF 
   341)      1487.1  Rx         0112  8  FD 1F 63 0F 7C 01 65 62 
   342)      1498.1  Rx         0112  8  FD 1F 63 0F 7C 01 65 62 
   343)      1498.3  Rx         01A1  5  7C CB 00 00 8A 
   344)      1501.2  Rx         003C  8  FF 5F 00 00 00 00 FF FF 
   345)      1502.2  Rx         03E9  8  16 00 00 00 00 00 00 00 
   346)      1503.1  Rx         0431  8  CA FF 0B 02 69 26 F3 4B 
   347)      1504.2  Rx         012F  8  F5 28 8A 1D F1 35 30 80 
   348)      1505.1  Rx         02F1  8  B8 11 96 41 09 E9 06 A0 
   349)      1506.2  Rx         0560  8  00 00 00 00 FE 00 00 60 
   350)      1509.1  Rx         0112  8  FD 1F 63 0F 7C 01 65 62 
   351)      1520.2  Rx         0112  8  FD 1F 63 0F 7C 01 65 62 
   352)      1520.3  Rx         01A1  5  7C CB 00 00 8A 
   353)      1531.1  Rx         0112  8  FD 1F 63 0F 7C 01 65 62 
   354)      1542.1  Rx         0112  8  FD 1F 63 0F 7C 01 65 62 
   355)      1542.3  Rx         01A1  5  7C CB 00 00 8A 
   356)      1553.1  Rx         0112  8  FD 1F 63 0F 7C 01 65 62 
   357)      1564.1  Rx         0112  8  FD 1F 63 0F 7C 01 65 62 
   358)      1564.3  Rx         01A1  5  7C CB 00 00 8A 
   359)      1575.1  Rx         0112  8  FD 1F 63 0F 7C 01 65 62 
   360)      1586.1  Rx         0112  8  FD 1F 63 0F 7C 01 65 62 
   361)      1586.3  Rx         01A1  5  7C CB 00 00 8A 
   362)      1597.1  Rx         0112  8  FD 1F 63 0F 7C 01 65 62 
   363)      1602.2  Rx         003C  8  FF 5F 00 00 00 00 FF FF 
   364)      1603.1  Rx         03E9  8  16 00 00 00 00 00 00 00 
   365)      1604.1  Rx         0431  8  CA FF 0B 02 69 26 F3 4B 
   366)      1605.1  Rx         012F  8  F5 28 8A 1D F1 35 30 80 
   367)      1606.1  Rx         02F1  8  B8 11 96 41 09 E9 06 A0 
   368)      1607.2  Rx         0560  8  00 00 00 00 FE 00 00 60 
   369)      1607.4  Rx         02FA  8  FD FF 00 00 FF FF FF FF 
   370)      1608.1  Rx         0432  8  2C E2 10 A3 4C FF 02 FF 
   371)      1609.2  Rx         051A  8  00 00 00 00 50 00 00 1A 
   372)      1610.2  Rx         0540  8  00 00 00 00 FD 3C FF 40 
   373)      1611.2  Rx         0510  8  40 10 20 00 00 00 00 00 
   374)      1612.1  Rx         0328  6  1F 00 00 00 87 1E 
   375)      1613.0  Rx         03E8  2  F1 FF 
   376)      1614.2  Rx         03F9  8  C0 F9 80 E0 43 3C C3 FF 
