;$FILEVERSION=1.1
;$STARTTIME=44742.5783577778
;
;   Start time: 30.6.2022 13.52.50.112.0
;   Generated by PCAN-View v4.3.4.615
;
;   Message Number
;   |         Time Offset (ms)
;   |         |        Type
;   |         |        |        ID (hex)
;   |         |        |        |     Data Length
;   |         |        |        |     |   Data Bytes (hex) ...
;   |         |        |        |     |   |
;---+--   ----+----  --+--  ----+---  +  -+ -- -- -- -- -- -- --
     1)         1.4  Rx         0112  8  FE 1F A7 0F 86 01 65 64 
     2)        12.4  Rx         0112  8  FE 1F A7 0F 86 01 65 64 
     3)        12.6  Rx         01A1  5  7C CB 00 00 8A 
     4)        23.4  Rx         0112  8  FE 1F A7 0F 86 01 65 64 
     5)        34.4  Rx         0112  8  FE 1F A7 0F 86 01 65 64 
     6)        34.6  Rx         01A1  5  7C CB 00 00 8A 
     7)        45.5  Rx         0112  8  FE 1F A7 0F 86 01 65 64 
     8)        53.2  Rx         03B4  8  00 00 0C F0 98 FF 00 00 
     9)        56.4  Rx         0112  8  FE 1F A7 0F 86 01 65 64 
    10)        56.6  Rx         01A1  5  7C CB 00 00 8A 
    11)        67.4  Rx         0112  8  FE 1F A7 0F 86 01 65 64 
    12)        72.5  Rx         003C  8  FF 5F 00 00 00 00 FF FF 
    13)        73.5  Rx         03E9  8  16 00 00 00 00 00 00 00 
    14)        74.4  Rx         0431  8  CA FF 0B 02 69 26 F3 4B 
    15)        75.5  Rx         012F  8  F5 28 8A 1D F1 35 30 80 
    16)        76.5  Rx         02F1  8  9A 10 7D 00 00 00 00 A0 
    17)        77.5  Rx         0560  8  00 00 00 00 FE 00 00 60 
    18)        77.7  Rx         02FA  8  FD FF 00 00 FF FF FF FF 
    19)        78.5  Rx         0432  8  2C E2 10 A3 4E FF 02 FF 
    20)        79.5  Rx         051A  8  00 00 00 00 50 00 00 1A 
    21)        80.5  Rx         0540  8  00 00 00 00 FD 3C FF 40 
    22)        81.5  Rx         0510  8  40 10 20 00 00 00 00 00 
    23)        82.5  Rx         0112  8  FE 1F A7 0F 86 01 65 64 
    24)        82.7  Rx         01A1  5  7C CB 00 00 8A 
    25)        93.0  Rx         0272  8  2D FE 00 12 FF FF FF FF 
    26)        93.4  Rx         0112  8  FE 1F A7 0F 86 01 65 64 
    27)       104.5  Rx         0112  8  FE 1F A7 0F 86 01 65 64 
    28)       104.6  Rx         01A1  5  7C CB 00 00 8A 
    29)       115.4  Rx         0112  8  FE 1F A7 0F 86 01 65 64 
    30)       126.5  Rx         0112  8  FE 1F A7 0F 86 01 65 64 
    31)       126.6  Rx         01A1  5  7C CB 00 00 8A 
    32)       137.5  Rx         0112  8  FE 1F A7 0F 86 01 65 64 
    33)       148.4  Rx         0112  8  FE 1F A7 0F 86 01 65 64 
    34)       148.6  Rx         01A1  5  7C CB 00 00 8A 
    35)       159.4  Rx         0112  8  FE 1F A7 0F 86 01 65 64 
    36)       170.4  Rx         0112  8  FE 1F A7 0F 86 01 65 64 
    37)       170.6  Rx         01A1  5  7C CB 00 00 8A 
    38)       173.4  Rx         003C  8  FF 5F 00 00 00 00 FF FF 
    39)       174.4  Rx         03E9  8  16 00 00 00 00 00 00 00 
    40)       175.4  Rx         0431  8  CA FF 0B 02 69 26 F3 4B 
    41)       176.4  Rx         012F  8  F5 28 8A 1D F1 35 30 80 
    42)       177.4  Rx         02F1  8  9A 10 7D 00 00 00 00 A0 
    43)       178.5  Rx         0560  8  00 00 00 00 FE 00 00 60 
    44)       181.4  Rx         0112  8  FE 1F A7 0F 86 01 65 64 
    45)       192.4  Rx         0112  8  FE 1F A7 0F 86 01 65 64 
    46)       192.6  Rx         01A1  5  7C CB 00 00 8A 
    47)       203.5  Rx         0112  8  FE 1F A7 0F 86 01 65 64 
    48)       214.4  Rx         0112  8  FE 1F A7 0F 86 01 65 64 
    49)       214.6  Rx         01A1  5  7C CB 00 00 8A 
    50)       225.4  Rx         0112  8  FE 1F A7 0F 86 01 65 64 
    51)       236.4  Rx         0112  8  FE 1F A7 0F 86 01 65 64 
    52)       236.6  Rx         01A1  5  7C CB 00 00 8A 
    53)       247.5  Rx         0112  8  FE 1F A7 0F 86 01 65 64 
    54)       253.1  Rx         0337  2  FF FF 
    55)       253.4  Rx         03B4  8  00 00 0C F0 98 FF 00 00 
    56)       258.4  Rx         0112  8  FE 1F A7 0F 86 01 65 64 
    57)       258.6  Rx         01A1  5  7C CB 00 00 8A 
    58)       269.4  Rx         0112  8  FE 1F A7 0F 86 01 65 64 
    59)       274.5  Rx         003C  8  FF 5F 00 00 00 00 FF FF 
    60)       275.4  Rx         03E9  8  16 00 00 00 00 00 00 00 
    61)       276.4  Rx         0431  8  CA FF 0B 02 69 26 F3 4B 
    62)       277.4  Rx         012F  8  F5 28 8A 1D F1 35 30 80 
    63)       278.4  Rx         02F1  8  9A 10 7D 00 00 00 00 A0 
    64)       279.5  Rx         0560  8  00 00 00 00 FE 00 00 60 
    65)       279.7  Rx         02FA  8  FD FF 00 00 FF FF FF FF 
    66)       280.4  Rx         0432  8  2C E2 10 A3 4E FF 02 FF 
    67)       281.5  Rx         051A  8  00 00 00 00 50 00 00 1A 
    68)       282.4  Rx         0540  8  00 00 00 00 FD 3C FF 40 
    69)       283.2  Rx         03C3  8  73 08 06 61 1C C4 63 20 
    70)       283.5  Rx         0510  8  40 10 20 00 00 00 00 00 
    71)       284.4  Rx         0328  6  27 00 00 00 87 1E 
    72)       285.3  Rx         03E8  2  F1 FF 
    73)       286.4  Rx         03F9  8  C0 F9 80 E0 43 3C C3 FF 
    74)       287.5  Rx         0112  8  FE 1F A7 0F 86 01 65 64 
    75)       287.6  Rx         01A1  5  7C CB 00 00 8A 
    76)       293.4  Rx         0272  8  2C F0 00 12 FF FF FF FF 
    77)       298.4  Rx         0112  8  FE 1F A7 0F 86 01 65 64 
    78)       309.4  Rx         0112  8  FE 1F A7 0F 86 01 65 64 
    79)       309.6  Rx         01A1  5  7C CB 00 00 8A 
    80)       320.5  Rx         0112  8  FE 1F A7 0F 86 01 65 64 
    81)       331.4  Rx         0112  8  FE 1F A7 0F 86 01 65 64 
    82)       331.6  Rx         01A1  5  7C CB 00 00 8A 
    83)       342.4  Rx         0112  8  FE 1F A7 0F 86 01 65 64 
    84)       353.4  Rx         0112  8  FE 1F A7 0F 86 01 65 64 
    85)       353.6  Rx         01A1  5  7C CB 00 00 8A 
    86)       364.5  Rx         0112  8  FE 1F A7 0F 86 01 65 64 
    87)       375.4  Rx         0112  8  FE 1F A7 0F 86 01 65 64 
    88)       375.7  Rx         003C  8  FF 5F 00 00 00 00 FF FF 
    89)       375.9  Rx         01A1  5  7C CB 00 00 8A 
    90)       376.5  Rx         03E9  8  16 00 00 00 00 00 00 00 
    91)       377.4  Rx         0431  8  CA FF 0B 02 69 26 F3 4B 
    92)       378.5  Rx         012F  8  F5 28 8A 1D F1 35 30 80 
    93)       379.4  Rx         02F1  8  9A 10 7D 00 00 00 00 A0 
    94)       380.5  Rx         0560  8  00 00 00 00 FE 00 00 60 
    95)       386.4  Rx         0112  8  FE 1F A7 0F 86 01 65 64 
    96)       397.5  Rx         0112  8  FE 1F A7 0F 86 01 65 64 
    97)       397.7  Rx         01A1  5  7C CB 00 00 8A 
    98)       408.5  Rx         0112  8  FE 1F A7 0F 86 01 65 64 
    99)       419.5  Rx         0112  8  FE 1F A7 0F 86 01 65 64 
   100)       419.7  Rx         01A1  5  7C CB 00 00 8A 
   101)       430.5  Rx         0112  8  FE 1F A7 0F 86 01 65 64 
   102)       441.5  Rx         0112  8  FE 1F A7 0F 86 01 65 64 
   103)       441.7  Rx         01A1  5  7C CB 00 00 8A 
   104)       452.5  Rx         0112  8  FE 1F A7 0F 86 01 65 64 
   105)       453.4  Rx         03B4  8  00 00 0C F0 98 FF 00 00 
   106)       463.5  Rx         0112  8  FE 1F A7 0F 86 01 65 64 
   107)       463.6  Rx         01A1  5  7C CB 00 00 8A 
   108)       474.5  Rx         0112  8  FE 1F A7 0F 86 01 65 64 
   109)       476.5  Rx         003C  8  FF 5F 00 00 00 00 FF FF 
   110)       477.5  Rx         03E9  8  16 00 00 00 00 00 00 00 
   111)       478.5  Rx         0431  8  CA FF 0B 02 69 26 F3 4B 
   112)       479.5  Rx         012F  8  F5 28 8A 1D F1 35 30 80 
   113)       480.5  Rx         02F1  8  9A 10 7D 00 00 00 00 A0 
   114)       481.5  Rx         0560  8  00 00 00 00 FE 00 00 60 
   115)       481.8  Rx         02FA  8  FD FF 00 00 FF FF FF FF 
   116)       482.5  Rx         0432  8  2C E2 10 A3 4E FF 02 FF 
   117)       483.5  Rx         051A  8  00 00 00 00 50 00 00 1A 
   118)       484.5  Rx         0540  8  00 00 00 00 FD 3C FF 40 
   119)       485.5  Rx         0510  8  40 10 20 00 00 00 00 00 
   120)       486.5  Rx         0112  8  FE 1F A7 0F 86 01 65 64 
   121)       486.7  Rx         01A1  5  7C CB 00 00 8A 
   122)       493.5  Rx         0272  8  71 F1 00 12 FF FF FF FF 
   123)       497.5  Rx         0112  8  FE 1F A7 0F 86 01 65 64 
   124)       508.5  Rx         0112  8  FE 1F A7 0F 86 01 65 64 
   125)       508.6  Rx         01A1  5  7C CB 00 00 8A 
   126)       519.4  Rx         0112  8  FE 1F A7 0F 86 01 65 64 
   127)       530.5  Rx         0112  8  FE 1F A7 0F 86 01 65 64 
   128)       530.7  Rx         01A1  5  7C CB 00 00 8A 
   129)       541.5  Rx         0112  8  FE 1F A7 0F 86 01 65 64 
   130)       552.5  Rx         0112  8  FE 1F A7 0F 86 01 65 64 
   131)       552.7  Rx         01A1  5  7C CB 00 00 8A 
   132)       563.5  Rx         0112  8  FE 1F A7 0F 86 01 65 64 
   133)       574.5  Rx         0112  8  FE 1F A7 0F 86 01 65 64 
   134)       574.6  Rx         01A1  5  7C CB 00 00 8A 
   135)       577.5  Rx         003C  8  FF 5F 00 00 00 00 FF FF 
   136)       578.5  Rx         03E9  8  16 00 00 00 00 00 00 00 
   137)       579.5  Rx         0431  8  CA FF 0B 02 69 26 F3 4B 
   138)       580.4  Rx         012F  8  F5 28 8A 1D F1 35 30 80 
   139)       581.5  Rx         02F1  8  9A 10 7D 00 00 00 00 A0 
   140)       582.5  Rx         0560  8  00 00 00 00 FE 00 00 60 
   141)       585.5  Rx         0112  8  FE 1F A7 0F 86 01 65 64 
   142)       596.5  Rx         0112  8  FE 1F A7 0F 86 01 65 64 
   143)       596.7  Rx         01A1  5  7C CB 00 00 8A 
   144)       607.5  Rx         0112  8  FE 1F A7 0F 86 01 65 64 
   145)       618.5  Rx         0112  8  FE 1F A7 0F 86 01 65 64 
   146)       618.6  Rx         01A1  5  7C CB 00 00 8A 
   147)       629.5  Rx         0112  8  FE 1F A7 0F 86 01 65 64 
   148)       640.5  Rx         0112  8  FE 1F A7 0F 86 01 65 64 
   149)       640.6  Rx         01A1  5  7C CB 00 00 8A 
   150)       651.5  Rx         0112  8  FE 1F A7 0F 86 01 65 64 
   151)       653.8  Rx         03B4  8  00 00 0C F0 98 FF 00 00 
   152)       662.5  Rx         0112  8  FE 1F A7 0F 86 01 65 64 
   153)       662.7  Rx         01A1  5  7C CB 00 00 8A 
   154)       673.5  Rx         0112  8  FE 1F A7 0F 86 01 65 64 
   155)       678.5  Rx         003C  8  FF 5F 00 00 00 00 FF FF 
   156)       679.5  Rx         03E9  8  16 00 00 00 00 00 00 00 
   157)       680.5  Rx         0431  8  CA FF 0B 02 69 26 F3 4B 
   158)       681.5  Rx         012F  8  F5 28 8A 1D F1 35 30 80 
   159)       682.5  Rx         02F1  8  9A 10 7D 00 00 00 00 A0 
   160)       683.5  Rx         0560  8  00 00 00 00 FE 00 00 60 
   161)       683.7  Rx         02FA  8  FD FF 00 00 FF FF FF FF 
   162)       684.5  Rx         0432  8  2C E2 10 A3 4E FF 02 FF 
   163)       685.5  Rx         051A  8  00 00 00 00 50 00 00 1A 
   164)       686.5  Rx         0540  8  00 00 00 00 FD 3C FF 40 
   165)       687.5  Rx         0510  8  40 10 20 00 00 00 00 00 
   166)       688.5  Rx         0112  8  FE 1F A7 0F 86 01 65 64 
   167)       688.7  Rx         01A1  5  7C CB 00 00 8A 
   168)       693.6  Rx         0272  8  96 F2 00 12 FF FF FF FF 
   169)       699.4  Rx         0112  8  FE 1F A7 0F 86 01 65 64 
   170)       710.5  Rx         0112  8  FE 1F A7 0F 86 01 65 64 
   171)       710.7  Rx         01A1  5  7C CB 00 00 8A 
   172)       721.5  Rx         0112  8  FE 1F A7 0F 86 01 65 64 
   173)       732.5  Rx         0112  8  FE 1F A7 0F 86 01 65 64 
   174)       732.6  Rx         01A1  5  7C CB 00 00 8A 
   175)       743.5  Rx         0112  8  FE 1F A7 0F 86 01 65 64 
   176)       754.5  Rx         0112  8  FE 1F A7 0F 86 01 65 64 
   177)       754.7  Rx         01A1  5  7C CB 00 00 8A 
   178)       765.5  Rx         0112  8  FE 1F A7 0F 86 01 65 64 
   179)       776.5  Rx         0112  8  FE 1F A7 0F 86 01 65 64 
   180)       776.7  Rx         01A1  5  7C CB 00 00 8A 
   181)       779.5  Rx         003C  8  FF 5F 00 00 00 00 FF FF 
   182)       780.5  Rx         03E9  8  16 00 00 00 00 00 00 00 
   183)       781.4  Rx         0431  8  CA FF 0B 02 69 26 F3 4B 
   184)       782.5  Rx         012F  8  F5 28 8A 1D F1 35 30 80 
   185)       783.5  Rx         02F1  8  9A 10 7D 00 00 00 00 A0 
   186)       784.5  Rx         0560  8  00 00 00 00 FE 00 00 60 
   187)       787.5  Rx         0112  8  FE 1F A7 0F 86 01 65 64 
   188)       798.5  Rx         0112  8  FE 1F A7 0F 86 01 65 64 
   189)       798.6  Rx         01A1  5  7C CB 00 00 8A 
   190)       809.4  Rx         0112  8  FE 1F A7 0F 86 01 65 64 
   191)       820.5  Rx         0112  8  FE 1F A7 0F 86 01 65 64 
   192)       820.7  Rx         01A1  5  7C CB 00 00 8A 
   193)       831.5  Rx         0112  8  FE 1F A7 0F 86 01 65 64 
   194)       842.5  Rx         0112  8  FE 1F A7 0F 86 01 65 64 
   195)       842.7  Rx         01A1  5  7C CB 00 00 8A 
   196)       853.5  Rx         0112  8  FE 1F A7 0F 86 01 65 64 
   197)       853.9  Rx         03B4  8  00 00 0C F0 98 FF 00 00 
   198)       864.5  Rx         0112  8  FE 1F A7 0F 86 01 65 64 
   199)       864.6  Rx         01A1  5  7C CB 00 00 8A 
   200)       875.5  Rx         0112  8  FE 1F A7 0F 86 01 65 64 
   201)       880.5  Rx         003C  8  FF 5F 00 00 00 00 FF FF 
   202)       881.5  Rx         03E9  8  16 00 00 00 00 00 00 00 
   203)       882.5  Rx         0431  8  CA FF 0B 02 69 26 F3 4B 
   204)       883.5  Rx         012F  8  F5 28 8A 1D F1 35 30 80 
   205)       884.5  Rx         02F1  8  9A 10 7D 00 00 00 00 A0 
   206)       885.5  Rx         0560  8  00 00 00 00 FE 00 00 60 
   207)       885.8  Rx         02FA  8  FD FF 00 00 FF FF FF FF 
   208)       886.5  Rx         0432  8  2C E2 10 A3 4E FF 02 FF 
   209)       887.5  Rx         051A  8  00 00 00 00 50 00 00 1A 
   210)       888.5  Rx         0540  8  00 00 00 00 FD 3C FF 40 
   211)       889.5  Rx         0510  8  40 10 20 00 00 00 00 00 
   212)       890.5  Rx         0112  8  FE 1F A7 0F 86 01 65 64 
   213)       890.7  Rx         01A1  5  7C CB 00 00 8A 
   214)       894.0  Rx         0272  8  CB F3 00 12 FF FF FF FF 
   215)       901.5  Rx         0112  8  FE 1F A7 0F 86 01 65 64 
   216)       912.5  Rx         0112  8  FE 1F A7 0F 86 01 65 64 
   217)       912.6  Rx         01A1  5  7C CB 00 00 8A 
   218)       923.5  Rx         0112  8  FE 1F A7 0F 86 01 65 64 
   219)       934.4  Rx         0112  8  FE 1F A7 0F 86 01 65 64 
   220)       934.7  Rx         01A1  5  7C CB 00 00 8A 
   221)       945.5  Rx         0112  8  FE 1F A7 0F 86 01 65 64 
   222)       956.5  Rx         0112  8  FE 1F A7 0F 86 01 65 64 
   223)       956.6  Rx         01A1  5  7C CB 00 00 8A 
   224)       967.4  Rx         0112  8  FE 1F A7 0F 86 01 65 64 
   225)       978.5  Rx         0112  8  FE 1F A7 0F 86 01 65 64 
   226)       978.6  Rx         01A1  5  7C CB 00 00 8A 
   227)       981.5  Rx         003C  8  FF 5F 00 00 00 00 FF FF 
   228)       982.5  Rx         03E9  8  16 00 00 00 00 00 00 00 
   229)       983.5  Rx         0431  8  CA FF 0B 02 69 26 F3 4B 
   230)       984.5  Rx         012F  8  F5 28 8A 1D F1 35 30 80 
   231)       985.5  Rx         02F1  8  9A 10 7D 00 00 00 00 A0 
   232)       986.5  Rx         0560  8  00 00 00 00 FE 00 00 60 
   233)       989.5  Rx         0112  8  FE 1F A7 0F 86 01 65 64 
   234)      1000.5  Rx         0112  8  FE 1F A7 0F 86 01 65 64 
   235)      1000.7  Rx         01A1  5  7C CB 00 00 8A 
   236)      1011.5  Rx         0112  8  FE 1F A7 0F 86 01 65 64 
   237)      1022.5  Rx         0112  8  FE 1F A7 0F 86 01 65 64 
   238)      1022.6  Rx         01A1  5  7C CB 00 00 8A 
   239)      1033.4  Rx         0112  8  FE 1F A7 0F 86 01 65 64 
   240)      1044.5  Rx         0112  8  FE 1F A7 0F 86 01 65 64 
   241)      1044.7  Rx         01A1  5  7C CB 00 00 8A 
   242)      1054.0  Rx         03B4  8  00 00 0C F0 98 FF 00 00 
   243)      1055.4  Rx         0112  8  FE 1F A7 0F 86 01 65 64 
   244)      1066.5  Rx         0112  8  FE 1F A7 0F 86 01 65 64 
   245)      1066.7  Rx         01A1  5  7C CB 00 00 8A 
   246)      1077.5  Rx         0112  8  FE 1F A7 0F 86 01 65 64 
   247)      1082.5  Rx         003C  8  FF 5F 00 00 00 00 FF FF 
   248)      1083.5  Rx         03E9  8  16 00 00 00 00 00 00 00 
   249)      1084.5  Rx         0431  8  CA FF 0B 02 69 26 F3 4B 
   250)      1085.5  Rx         012F  8  F5 28 8A 1D F1 35 30 80 
   251)      1086.5  Rx         02F1  8  9A 10 7D 00 00 00 00 A0 
   252)      1087.5  Rx         0560  8  00 00 00 00 FE 00 00 60 
   253)      1087.7  Rx         02FA  8  FD FF 00 00 FF FF FF FF 
   254)      1088.5  Rx         0432  8  2C E2 10 A3 4E FF 02 FF 
   255)      1089.5  Rx         051A  8  00 00 00 00 50 00 00 1A 
   256)      1090.5  Rx         0540  8  00 00 00 00 FD 3C FF 40 
   257)      1091.5  Rx         0510  8  40 10 20 00 00 00 00 00 
   258)      1092.6  Rx         0112  8  FE 1F A7 0F 86 01 65 64 
   259)      1092.7  Rx         01A1  5  7C CB 00 00 8A 
   260)      1094.0  Rx         0272  8  45 F4 00 12 FF FF FF FF 
   261)      1103.5  Rx         0112  8  FE 1F A7 0F 86 01 65 64 
   262)      1114.5  Rx         0112  8  FE 1F A7 0F 86 01 65 64 
   263)      1114.6  Rx         01A1  5  7C CB 00 00 8A 
   264)      1125.5  Rx         0112  8  FE 1F A7 0F 86 01 65 64 
   265)      1136.5  Rx         0112  8  FE 1F A7 0F 86 01 65 64 
   266)      1136.6  Rx         01A1  5  7C CB 00 00 8A 
   267)      1147.4  Rx         0112  8  FE 1F A7 0F 86 01 65 64 
   268)      1158.5  Rx         0112  8  FE 1F A7 0F 86 01 65 64 
   269)      1158.7  Rx         01A1  5  7C CB 00 00 8A 
   270)      1169.5  Rx         0112  8  FE 1F A7 0F 86 01 65 64 
   271)      1180.5  Rx         0112  8  FE 1F A7 0F 86 01 65 64 
   272)      1180.7  Rx         01A1  5  7C CB 00 00 8A 
   273)      1183.4  Rx         003C  8  FF 5F 00 00 00 00 FF FF 
   274)      1184.5  Rx         03E9  8  16 00 00 00 00 00 00 00 
   275)      1185.5  Rx         0431  8  CA FF 0B 02 69 26 F3 4B 
   276)      1186.4  Rx         012F  8  F5 28 8A 1D F1 35 30 80 
   277)      1187.5  Rx         02F1  8  9A 10 7D 00 00 00 00 A0 
   278)      1188.5  Rx         0560  8  00 00 00 00 FE 00 00 60 
   279)      1191.5  Rx         0112  8  FE 1F A7 0F 86 01 65 64 
   280)      1202.5  Rx         0112  8  FE 1F A7 0F 86 01 65 64 
   281)      1202.6  Rx         01A1  5  7C CB 00 00 8A 
   282)      1213.5  Rx         0112  8  FE 1F A7 0F 86 01 65 64 
   283)      1224.4  Rx         0112  8  FE 1F A7 0F 86 01 65 64 
   284)      1224.6  Rx         01A1  5  7C CB 00 00 8A 
   285)      1235.5  Rx         0112  8  FE 1F A7 0F 86 01 65 64 
   286)      1244.2  Rx         03C3  8  74 10 48 92 24 48 92 24 
   287)      1246.5  Rx         0112  8  FE 1F A7 0F 86 01 65 64 
   288)      1246.6  Rx         01A1  5  7C CB 00 00 8A 
   289)      1254.4  Rx         0337  2  FF FF 
   290)      1254.7  Rx         03B4  8  00 00 0C F0 98 FF 00 00 
   291)      1257.5  Rx         0112  8  FE 1F A7 0F 86 01 65 64 
   292)      1268.5  Rx         0112  8  FE 1F A7 0F 86 01 65 64 
   293)      1268.6  Rx         01A1  5  7C CB 00 00 8A 
   294)      1279.5  Rx         0112  8  FE 1F A7 0F 86 01 65 64 
   295)      1284.5  Rx         003C  8  FF 5F 00 00 00 00 FF FF 
   296)      1285.5  Rx         03E9  8  16 00 00 00 00 00 00 00 
   297)      1286.5  Rx         0431  8  CA FF 0B 02 69 26 F3 4B 
   298)      1287.5  Rx         012F  8  F5 28 8A 1D F1 35 30 80 
   299)      1288.5  Rx         02F1  8  9A 10 7D 00 00 00 00 A0 
   300)      1289.5  Rx         0560  8  00 00 00 00 FE 00 00 60 
   301)      1289.7  Rx         02FA  8  FD FF 00 00 FF FF FF FF 
   302)      1290.5  Rx         0432  8  2C E2 10 A3 4E FF 02 FF 
   303)      1291.5  Rx         051A  8  00 00 00 00 50 00 00 1A 
   304)      1292.5  Rx         0540  8  00 00 00 00 FD 3C FF 40 
   305)      1293.5  Rx         0510  8  40 10 20 00 00 00 00 00 
   306)      1294.2  Rx         0272  8  18 F5 00 12 FF FF FF FF 
   307)      1294.5  Rx         0328  6  28 00 00 00 87 1E 
   308)      1295.4  Rx         03E8  2  F1 FF 
   309)      1296.5  Rx         03F9  8  C0 F9 80 E0 43 3C C3 FF 
   310)      1297.5  Rx         02FC  8  81 00 04 FF FF FF FF FF 
   311)      1298.5  Rx         02A0  8  88 88 F8 0F FF FF FF FF 
   312)      1299.5  Rx         03A0  8  FF FF C0 FF FF FF FF FC 
   313)      1299.8  Rx         0112  8  FE 1F A7 0F 86 01 65 64 
   314)      1299.9  Rx         01A1  5  7C CB 00 00 8A 
   315)      1310.5  Rx         0112  8  FE 1F A7 0F 86 01 65 64 
   316)      1321.5  Rx         0112  8  FE 1F A7 0F 86 01 65 64 
   317)      1321.6  Rx         01A1  5  7C CB 00 00 8A 
   318)      1332.5  Rx         0112  8  FE 1F A7 0F 86 01 65 64 
   319)      1343.5  Rx         0112  8  FE 1F A7 0F 86 01 65 64 
   320)      1343.7  Rx         01A1  5  7C CB 00 00 8A 
   321)      1354.5  Rx         0112  8  FE 1F A7 0F 86 01 65 64 
   322)      1365.5  Rx         0112  8  FE 1F A7 0F 86 01 65 64 
   323)      1365.7  Rx         01A1  5  7C CB 00 00 8A 
   324)      1376.5  Rx         0112  8  FE 1F A7 0F 86 01 65 64 
   325)      1385.5  Rx         003C  8  FF 5F 00 00 00 00 FF FF 
   326)      1386.5  Rx         03E9  8  16 00 00 00 00 00 00 00 
   327)      1387.5  Rx         0431  8  CA FF 0B 02 69 26 F3 4B 
   328)      1388.5  Rx         012F  8  F5 28 8A 1D F1 35 30 80 
   329)      1389.5  Rx         02F1  8  9A 10 7D 00 00 00 00 A0 
   330)      1390.5  Rx         0560  8  00 00 00 00 FE 00 00 60 
   331)      1390.7  Rx         0112  8  FE 1F A7 0F 86 01 65 64 
   332)      1391.0  Rx         01A1  5  7C CB 00 00 8A 
   333)      1401.5  Rx         0112  8  FE 1F A7 0F 86 01 65 64 
   334)      1412.5  Rx         0112  8  FE 1F A7 0F 86 01 65 64 
   335)      1412.7  Rx         01A1  5  7C CB 00 00 8A 
   336)      1423.5  Rx         0112  8  FE 1F A7 0F 86 01 65 64 
   337)      1434.5  Rx         0112  8  FE 1F A7 0F 86 01 65 64 
   338)      1434.7  Rx         01A1  5  7C CB 00 00 8A 
   339)      1445.5  Rx         0112  8  FE 1F A7 0F 86 01 65 64 
   340)      1454.4  Rx         03B4  8  00 00 0C F0 98 FF 00 00 
   341)      1456.5  Rx         0112  8  FE 1F A7 0F 86 01 65 64 
   342)      1456.7  Rx         01A1  5  7C CB 00 00 8A 
   343)      1467.5  Rx         0112  8  FE 1F A7 0F 86 01 65 64 
   344)      1478.5  Rx         0112  8  FE 1F A7 0F 86 01 65 64 
   345)      1478.7  Rx         01A1  5  7C CB 00 00 8A 
   346)      1486.5  Rx         003C  8  FF 5F 00 00 00 00 FF FF 
   347)      1487.5  Rx         03E9  8  16 00 00 00 00 00 00 00 
   348)      1488.5  Rx         0431  8  CA FF 0B 02 69 26 F3 4B 
   349)      1489.5  Rx         012F  8  F5 28 8A 1D F1 35 30 80 
   350)      1490.5  Rx         02F1  8  9A 10 7D 00 00 00 00 A0 
   351)      1491.5  Rx         0560  8  00 00 00 00 FE 00 00 60 
   352)      1491.8  Rx         02FA  8  FD FF 00 00 FF FF FF FF 
   353)      1492.5  Rx         0432  8  2C E2 10 A3 4E FF 02 FF 
   354)      1493.5  Rx         051A  8  00 00 00 00 50 00 00 1A 
   355)      1494.5  Rx         0540  8  00 00 00 00 FD 3C FF 40 
   356)      1494.8  Rx         0272  8  FF F6 00 12 FF FF FF FF 
   357)      1495.5  Rx         0510  8  40 10 20 00 00 00 00 00 
   358)      1496.6  Rx         0112  8  FE 1F A7 0F 86 01 65 64 
   359)      1507.5  Rx         0112  8  FE 1F A7 0F 86 01 65 64 
   360)      1507.7  Rx         01A1  5  7C CB 00 00 8A 
   361)      1518.5  Rx         0112  8  FE 1F A7 0F 86 01 65 64 
   362)      1529.5  Rx         0112  8  FE 1F A7 0F 86 01 65 64 
   363)      1529.7  Rx         01A1  5  7C CB 00 00 8A 
   364)      1540.5  Rx         0112  8  FE 1F A7 0F 86 01 65 64 
   365)      1551.5  Rx         0112  8  FE 1F A7 0F 86 01 65 64 
   366)      1551.7  Rx         01A1  5  7C CB 00 00 8A 
   367)      1562.5  Rx         0112  8  FE 1F A7 0F 86 01 65 64 
   368)      1573.5  Rx         0112  8  FE 1F A7 0F 86 01 65 64 
   369)      1573.7  Rx         01A1  5  7C CB 00 00 8A 
   370)      1584.5  Rx         0112  8  FE 1F A7 0F 86 01 65 64 
   371)      1587.5  Rx         003C  8  FF 5F 00 00 00 00 FF FF 
   372)      1588.5  Rx         03E9  8  16 00 00 00 00 00 00 00 
   373)      1589.5  Rx         0431  8  CA FF 0B 02 69 26 F3 4B 
   374)      1590.5  Rx         012F  8  F5 28 8A 1D F1 35 30 80 
   375)      1591.5  Rx         02F1  8  9A 10 7D 00 00 00 00 A0 
   376)      1592.5  Rx         0560  8  00 00 00 00 FE 00 00 60 
   377)      1595.5  Rx         0112  8  FE 1F A7 0F 86 01 65 64 
   378)      1595.7  Rx         01A1  5  7C CB 00 00 8A 
   379)      1606.5  Rx         0112  8  FE 1F A7 0F 86 01 65 64 
   380)      1617.5  Rx         0112  8  FE 1F A7 0F 86 01 65 64 
   381)      1617.7  Rx         01A1  5  7C CB 00 00 8A 
   382)      1628.5  Rx         0112  8  FE 1F A7 0F 86 01 65 64 
