;$FILEVERSION=1.1
;$STARTTIME=44834.4766590162
;
;   Start time: 30.9.2022 11.26.23.339.0
;   Generated by PCAN-View v5.0.2.838
;
;   Message Number
;   |         Time Offset (ms)
;   |         |        Type
;   |         |        |        ID (hex)
;   |         |        |        |     Data Length
;   |         |        |        |     |   Data Bytes (hex) ...
;   |         |        |        |     |   |
;---+--   ----+----  --+--  ----+---  +  -+ -- -- -- -- -- -- --
     1)         4.0  Rx         0112  8  FE 1F 39 0F 40 01 65 61 
     2)         4.1  Rx         01A1  5  7C CB 00 00 8A 
     3)        15.0  Rx         0112  8  FE 1F 39 0F 40 01 65 61 
     4)        23.8  Rx         03B4  8  00 00 0C F0 98 FF 00 00 
     5)        26.0  Rx         0112  8  FE 1F 39 0F 40 01 65 61 
     6)        26.2  Rx         01A1  5  7C CB 00 00 8A 
     7)        37.0  Rx         0112  8  FE 1F 39 0F 40 01 65 61 
     8)        48.0  Rx         0112  8  FE 1F 39 0F 40 01 65 61 
     9)        48.2  Rx         01A1  5  7C CB 00 00 8A 
    10)        51.0  Rx         003C  8  FF 5F 00 00 00 00 FF FF 
    11)        52.0  Rx         03E9  8  16 00 00 00 00 00 00 00 
    12)        52.9  Rx         0431  8  CA FF 0B 02 69 26 F3 4B 
    13)        54.0  Rx         012F  8  F5 28 8A 1D F1 35 30 80 
    14)        55.0  Rx         02F1  8  00 00 96 00 00 00 00 A0 
    15)        56.0  Rx         0560  8  00 00 00 00 FE 00 00 60 
    16)        59.0  Rx         0112  8  FE 1F 39 0F 40 01 65 61 
    17)        59.3  Rx         0272  8  CB F3 00 12 FF FF FF FF 
    18)        70.0  Rx         0112  8  FE 1F 39 0F 40 01 65 61 
    19)        70.2  Rx         01A1  5  7C CB 00 00 8A 
    20)        81.0  Rx         0112  8  FE 1F 39 0F 40 01 65 61 
    21)        92.0  Rx         0112  8  FE 1F 39 0F 40 01 65 61 
    22)        92.2  Rx         01A1  5  7C CB 00 00 8A 
    23)       103.0  Rx         0112  8  FE 1F 39 0F 40 01 65 61 
    24)       114.0  Rx         0112  8  FE 1F 39 0F 40 01 65 61 
    25)       114.2  Rx         01A1  5  7C CB 00 00 8A 
    26)       125.0  Rx         0112  8  FE 1F 39 0F 40 01 65 61 
    27)       136.0  Rx         0112  8  FE 1F 39 0F 40 01 65 61 
    28)       136.2  Rx         01A1  5  7C CB 00 00 8A 
    29)       147.0  Rx         0112  8  FE 1F 39 0F 40 01 65 61 
    30)       152.0  Rx         003C  8  FF 5F 00 00 00 00 FF FF 
    31)       153.0  Rx         03E9  8  16 00 00 00 00 00 00 00 
    32)       154.0  Rx         0431  8  CA FF 0B 02 69 26 F3 4B 
    33)       155.0  Rx         012F  8  F5 28 8A 1D F1 35 30 80 
    34)       156.0  Rx         02F1  8  00 00 96 00 00 00 00 A0 
    35)       157.0  Rx         0560  8  00 00 00 00 FE 00 00 60 
    36)       157.3  Rx         02FA  8  FD FF 00 00 FF FF FF FF 
    37)       158.0  Rx         0432  8  2C E2 10 A3 40 FF 02 FF 
    38)       159.0  Rx         051A  8  00 00 00 00 50 00 00 1A 
    39)       160.0  Rx         0540  8  00 00 00 00 FD 3C FF 40 
    40)       161.0  Rx         0510  8  40 10 20 00 00 00 00 00 
    41)       162.1  Rx         0112  8  FE 1F 39 0F 40 01 65 61 
    42)       162.2  Rx         01A1  5  7C CB 00 00 8A 
    43)       173.0  Rx         0112  8  FE 1F 39 0F 40 01 65 61 
    44)       184.0  Rx         0112  8  FE 1F 39 0F 40 01 65 61 
    45)       184.2  Rx         01A1  5  7C CB 00 00 8A 
    46)       195.0  Rx         0112  8  FE 1F 39 0F 40 01 65 61 
    47)       206.0  Rx         0112  8  FE 1F 39 0F 40 01 65 61 
    48)       206.2  Rx         01A1  5  7C CB 00 00 8A 
    49)       217.0  Rx         0112  8  FE 1F 39 0F 40 01 65 61 
    50)       224.2  Rx         03B4  8  00 00 0C F0 98 FF 00 00 
    51)       228.0  Rx         0112  8  FE 1F 39 0F 40 01 65 61 
    52)       228.2  Rx         01A1  5  7C CB 00 00 8A 
    53)       239.0  Rx         0112  8  FE 1F 39 0F 40 01 65 61 
    54)       250.0  Rx         0112  8  FE 1F 39 0F 40 01 65 61 
    55)       250.2  Rx         01A1  5  7C CB 00 00 8A 
    56)       253.0  Rx         003C  8  FF 5F 00 00 00 00 FF FF 
    57)       254.0  Rx         03E9  8  16 00 00 00 00 00 00 00 
    58)       255.0  Rx         0431  8  CA FF 0B 02 69 26 F3 4B 
    59)       256.0  Rx         012F  8  F5 28 8A 1D F1 35 30 80 
    60)       257.0  Rx         02F1  8  00 00 96 00 00 00 00 A0 
    61)       258.0  Rx         0560  8  00 00 00 00 FE 00 00 60 
    62)       259.4  Rx         0272  8  45 F4 00 12 FF FF FF FF 
    63)       261.0  Rx         0112  8  FE 1F 39 0F 40 01 65 61 
    64)       272.0  Rx         0112  8  FE 1F 39 0F 40 01 65 61 
    65)       272.2  Rx         01A1  5  7C CB 00 00 8A 
    66)       283.0  Rx         0112  8  FE 1F 39 0F 40 01 65 61 
    67)       294.0  Rx         0112  8  FE 1F 39 0F 40 01 65 61 
    68)       294.2  Rx         01A1  5  7C CB 00 00 8A 
    69)       305.0  Rx         0112  8  FE 1F 39 0F 40 01 65 61 
    70)       316.0  Rx         0112  8  FE 1F 39 0F 40 01 65 61 
    71)       316.2  Rx         01A1  5  7C CB 00 00 8A 
    72)       327.0  Rx         0112  8  FE 1F 39 0F 40 01 65 61 
    73)       338.0  Rx         0112  8  FE 1F 39 0F 40 01 65 61 
    74)       338.2  Rx         01A1  5  7C CB 00 00 8A 
    75)       349.0  Rx         0112  8  FE 1F 39 0F 40 01 65 61 
    76)       354.0  Rx         003C  8  FF 5F 00 00 00 00 FF FF 
    77)       355.0  Rx         03E9  8  16 00 00 00 00 00 00 00 
    78)       356.0  Rx         0431  8  CA FF 0B 02 69 26 F3 4B 
    79)       357.0  Rx         012F  8  F5 28 8A 1D F1 35 30 80 
    80)       358.0  Rx         02F1  8  00 00 96 00 00 00 00 A0 
    81)       359.0  Rx         0560  8  00 00 00 00 FE 00 00 60 
    82)       359.2  Rx         02FA  8  FD FF 00 00 FF FF FF FF 
    83)       360.0  Rx         0432  8  2C E2 10 A3 40 FF 02 FF 
    84)       361.0  Rx         051A  8  00 00 00 00 50 00 00 1A 
    85)       362.0  Rx         0540  8  00 00 00 00 FD 3C FF 40 
    86)       363.0  Rx         0510  8  40 10 20 00 00 00 00 00 
    87)       364.0  Rx         0328  6  88 00 00 00 87 1E 
    88)       364.9  Rx         03E8  2  F1 FF 
    89)       366.0  Rx         03F9  8  C0 F9 80 E0 43 3C C3 FF 
    90)       367.0  Rx         02FC  8  81 00 04 FF FF FF FF FF 
    91)       368.0  Rx         02A0  8  88 88 F8 0F FF FF FF FF 
    92)       369.0  Rx         03A0  8  FF FF C0 FF FF FF FF FC 
    93)       369.3  Rx         0112  8  FE 1F 39 0F 40 01 65 61 
    94)       369.4  Rx         01A1  5  7C CB 00 00 8A 
    95)       380.0  Rx         0112  8  FE 1F 39 0F 40 01 65 61 
    96)       391.0  Rx         0112  8  FE 1F 39 0F 40 01 65 61 
    97)       391.2  Rx         01A1  5  7C CB 00 00 8A 
    98)       402.0  Rx         0112  8  FE 1F 39 0F 40 01 65 61 
    99)       413.0  Rx         0112  8  FE 1F 39 0F 40 01 65 61 
   100)       413.2  Rx         01A1  5  7C CB 00 00 8A 
   101)       424.0  Rx         0112  8  FE 1F 39 0F 40 01 65 61 
   102)       424.6  Rx         03B4  8  00 00 0C F0 98 FF 00 00 
   103)       435.0  Rx         0112  8  FE 1F 39 0F 40 01 65 61 
   104)       435.2  Rx         01A1  5  7C CB 00 00 8A 
   105)       446.0  Rx         0112  8  FE 1F 39 0F 40 01 65 61 
   106)       455.0  Rx         003C  8  FF 5F 00 00 00 00 FF FF 
   107)       456.0  Rx         03E9  8  16 00 00 00 00 00 00 00 
   108)       457.0  Rx         0431  8  CA FF 0B 02 69 26 F3 4B 
   109)       458.0  Rx         012F  8  F5 28 8A 1D F1 35 30 80 
   110)       459.0  Rx         02F1  8  00 00 96 00 00 00 00 A0 
   111)       459.8  Rx         0272  8  18 F5 00 12 FF FF FF FF 
   112)       460.1  Rx         0560  8  00 00 00 00 FE 00 00 60 
   113)       460.3  Rx         0112  8  FE 1F 39 0F 40 01 65 61 
   114)       460.4  Rx         01A1  5  7C CB 00 00 8A 
   115)       471.0  Rx         0112  8  FE 1F 39 0F 40 01 65 61 
   116)       482.0  Rx         0112  8  FE 1F 39 0F 40 01 65 61 
   117)       482.2  Rx         01A1  5  7C CB 00 00 8A 
   118)       493.0  Rx         0112  8  FE 1F 39 0F 40 01 65 61 
   119)       504.0  Rx         0112  8  FE 1F 39 0F 40 01 65 61 
   120)       504.2  Rx         01A1  5  7C CB 00 00 8A 
   121)       515.0  Rx         0112  8  FE 1F 39 0F 40 01 65 61 
   122)       526.0  Rx         0112  8  FE 1F 39 0F 40 01 65 61 
   123)       526.2  Rx         01A1  5  7C CB 00 00 8A 
   124)       537.0  Rx         0112  8  FE 1F 39 0F 40 01 65 61 
   125)       548.0  Rx         0112  8  FE 1F 39 0F 40 01 65 61 
   126)       548.2  Rx         01A1  5  7C CB 00 00 8A 
   127)       556.0  Rx         003C  8  FF 5F 00 00 00 00 FF FF 
   128)       557.0  Rx         03E9  8  16 00 00 00 00 00 00 00 
   129)       558.0  Rx         0431  8  CA FF 0B 02 69 26 F3 4B 
   130)       559.0  Rx         012F  8  F5 28 8A 1D F1 35 30 80 
   131)       560.0  Rx         02F1  8  00 00 96 00 00 00 00 A0 
   132)       561.0  Rx         0560  8  00 00 00 00 FE 00 00 60 
   133)       561.3  Rx         02FA  8  FD FF 00 00 FF FF FF FF 
   134)       562.0  Rx         0432  8  2C E2 10 A3 40 FF 02 FF 
   135)       563.0  Rx         051A  8  00 00 00 00 50 00 00 1A 
   136)       564.0  Rx         0540  8  00 00 00 00 FD 3C FF 40 
   137)       565.0  Rx         0510  8  40 10 20 00 00 00 00 00 
   138)       566.0  Rx         0112  8  FE 1F 39 0F 40 01 65 61 
   139)       577.0  Rx         0112  8  FE 1F 39 0F 40 01 65 61 
   140)       577.2  Rx         01A1  5  7C CB 00 00 8A 
   141)       588.0  Rx         0112  8  FE 1F 39 0F 40 01 65 61 
   142)       599.0  Rx         0112  8  FE 1F 39 0F 40 01 65 61 
   143)       599.2  Rx         01A1  5  7C CB 00 00 8A 
   144)       610.0  Rx         0112  8  FE 1F 39 0F 40 01 65 61 
   145)       621.0  Rx         0112  8  FE 1F 39 0F 40 01 65 61 
   146)       621.2  Rx         01A1  5  7C CB 00 00 8A 
   147)       624.9  Rx         03B4  8  00 00 0C F0 98 FF 00 00 
   148)       632.0  Rx         0112  8  FE 1F 39 0F 40 01 65 61 
   149)       643.0  Rx         0112  8  FE 1F 39 0F 40 01 65 61 
   150)       643.2  Rx         01A1  5  7C CB 00 00 8A 
   151)       654.0  Rx         0112  8  FE 1F 39 0F 40 01 65 61 
   152)       655.0  Rx         03C3  8  8C 18 49 92 24 49 92 24 
   153)       657.0  Rx         003C  8  FF 5F 00 00 00 00 FF FF 
   154)       658.0  Rx         03E9  8  16 00 00 00 00 00 00 00 
   155)       659.0  Rx         0431  8  CA FF 0B 02 69 26 F3 4B 
   156)       660.0  Rx         012F  8  F5 28 8A 1D F1 35 30 80 
   157)       660.4  Rx         0272  8  FF F6 00 12 FF FF FF FF 
   158)       661.0  Rx         02F1  8  00 00 96 00 00 00 00 A0 
   159)       662.0  Rx         0560  8  00 00 00 00 FE 00 00 60 
   160)       665.0  Rx         0112  8  FE 1F 39 0F 40 01 65 61 
   161)       665.2  Rx         01A1  5  7C CB 00 00 8A 
   162)       676.0  Rx         0112  8  FE 1F 39 0F 40 01 65 61 
   163)       687.0  Rx         0112  8  FE 1F 39 0F 40 01 65 61 
   164)       687.2  Rx         01A1  5  7C CB 00 00 8A 
   165)       698.0  Rx         0112  8  FE 1F 39 0F 40 01 65 61 
   166)       709.0  Rx         0112  8  FE 1F 39 0F 40 01 65 61 
   167)       709.2  Rx         01A1  5  7C CB 00 00 8A 
   168)       720.0  Rx         0112  8  FE 1F 39 0F 40 01 65 61 
   169)       731.0  Rx         0112  8  FE 1F 39 0F 40 01 65 61 
   170)       731.2  Rx         01A1  5  7C CB 00 00 8A 
   171)       742.0  Rx         0112  8  FE 1F 39 0F 40 01 65 61 
   172)       753.0  Rx         0112  8  FE 1F 39 0F 40 01 65 61 
   173)       753.2  Rx         01A1  5  7C CB 00 00 8A 
   174)       758.0  Rx         003C  8  FF 5F 00 00 00 00 FF FF 
   175)       759.0  Rx         03E9  8  16 00 00 00 00 00 00 00 
   176)       760.0  Rx         0431  8  CA FF 0B 02 69 26 F3 4B 
   177)       761.0  Rx         012F  8  F5 28 8A 1D F1 35 30 80 
   178)       762.0  Rx         02F1  8  00 00 96 00 00 00 00 A0 
   179)       763.0  Rx         0560  8  00 00 00 00 FE 00 00 60 
   180)       763.2  Rx         02FA  8  FD FF 00 00 FF FF FF FF 
   181)       764.0  Rx         0432  8  2C E2 10 A3 40 FF 02 FF 
   182)       765.0  Rx         051A  8  00 00 00 00 50 00 00 1A 
   183)       766.0  Rx         0540  8  00 00 00 00 FD 3C FF 40 
   184)       767.0  Rx         0510  8  40 10 20 00 00 00 00 00 
   185)       768.1  Rx         0112  8  FE 1F 39 0F 40 01 65 61 
   186)       779.0  Rx         0112  8  FE 1F 39 0F 40 01 65 61 
   187)       779.2  Rx         01A1  5  7C CB 00 00 8A 
   188)       790.0  Rx         0112  8  FE 1F 39 0F 40 01 65 61 
   189)       801.0  Rx         0112  8  FE 1F 39 0F 40 01 65 61 
   190)       801.2  Rx         01A1  5  7C CB 00 00 8A 
   191)       812.0  Rx         0112  8  FE 1F 39 0F 40 01 65 61 
   192)       823.0  Rx         0112  8  FE 1F 39 0F 40 01 65 61 
   193)       823.2  Rx         01A1  5  7C CB 00 00 8A 
   194)       825.1  Rx         0337  2  FF FF 
   195)       825.4  Rx         03B4  8  00 00 0C F0 98 FF 00 00 
   196)       834.0  Rx         0112  8  FE 1F 39 0F 40 01 65 61 
   197)       845.0  Rx         0112  8  FE 1F 39 0F 40 01 65 61 
   198)       845.2  Rx         01A1  5  7C CB 00 00 8A 
   199)       856.0  Rx         0112  8  FE 1F 39 0F 40 01 65 61 
   200)       859.0  Rx         003C  8  FF 5F 00 00 00 00 FF FF 
   201)       860.0  Rx         03E9  8  16 00 00 00 00 00 00 00 
   202)       860.6  Rx         0272  8  A2 F7 00 12 FF FF FF FF 
   203)       861.0  Rx         0431  8  CA FF 0B 02 69 26 F3 4B 
   204)       862.0  Rx         012F  8  F5 28 8A 1D F1 35 30 80 
   205)       863.0  Rx         02F1  8  00 00 96 00 00 00 00 A0 
   206)       864.0  Rx         0560  8  00 00 00 00 FE 00 00 60 
   207)       867.0  Rx         0112  8  FE 1F 39 0F 40 01 65 61 
   208)       867.2  Rx         01A1  5  7C CB 00 00 8A 
   209)       878.0  Rx         0112  8  FE 1F 39 0F 40 01 65 61 
   210)       889.0  Rx         0112  8  FE 1F 39 0F 40 01 65 61 
   211)       889.2  Rx         01A1  5  7C CB 00 00 8A 
   212)       900.0  Rx         0112  8  FE 1F 39 0F 40 01 65 61 
   213)       911.0  Rx         0112  8  FE 1F 39 0F 40 01 65 61 
   214)       911.2  Rx         01A1  5  7C CB 00 00 8A 
   215)       922.0  Rx         0112  8  FE 1F 39 0F 40 01 65 61 
   216)       933.0  Rx         0112  8  FE 1F 39 0F 40 01 65 61 
   217)       933.2  Rx         01A1  5  7C CB 00 00 8A 
   218)       944.0  Rx         0112  8  FE 1F 39 0F 40 01 65 61 
   219)       955.0  Rx         0112  8  FE 1F 39 0F 40 01 65 61 
   220)       955.1  Rx         01A1  5  7C CB 00 00 8A 
   221)       960.0  Rx         003C  8  FF 5F 00 00 00 00 FF FF 
   222)       961.0  Rx         03E9  8  16 00 00 00 00 00 00 00 
   223)       962.0  Rx         0431  8  CA FF 0B 02 69 26 F3 4B 
   224)       963.0  Rx         012F  8  F5 28 8A 1D F1 35 30 80 
   225)       964.0  Rx         02F1  8  00 00 96 00 00 00 00 A0 
   226)       965.0  Rx         0560  8  00 00 00 00 FE 00 00 60 
   227)       965.3  Rx         02FA  8  FD FF 00 00 FF FF FF FF 
   228)       966.0  Rx         0432  8  2C E2 10 A3 40 FF 02 FF 
   229)       967.0  Rx         051A  8  00 00 00 00 50 00 00 1A 
   230)       968.0  Rx         0540  8  00 00 00 00 FD 3C FF 40 
   231)       969.0  Rx         0510  8  40 10 20 00 00 00 00 00 
   232)       970.0  Rx         0112  8  FE 1F 39 0F 40 01 65 61 
   233)       981.0  Rx         0112  8  FE 1F 39 0F 40 01 65 61 
   234)       981.2  Rx         01A1  5  7C CB 00 00 8A 
   235)       992.0  Rx         0112  8  FE 1F 39 0F 40 01 65 61 
   236)      1003.0  Rx         0112  8  FE 1F 39 0F 40 01 65 61 
   237)      1003.1  Rx         01A1  5  7C CB 00 00 8A 
   238)      1014.0  Rx         0112  8  FE 1F 39 0F 40 01 65 61 
   239)      1025.0  Rx         0112  8  FE 1F 39 0F 40 01 65 61 
   240)      1025.2  Rx         01A1  5  7C CB 00 00 8A 
   241)      1025.7  Rx         03B4  8  00 00 0C F0 98 FF 00 00 
   242)      1036.0  Rx         0112  8  FE 1F 39 0F 40 01 65 61 
   243)      1047.0  Rx         0112  8  FE 1F 39 0F 40 01 65 61 
   244)      1047.2  Rx         01A1  5  7C CB 00 00 8A 
   245)      1058.0  Rx         0112  8  FE 1F 39 0F 40 01 65 61 
   246)      1060.8  Rx         0272  8  FE F8 00 12 FF FF FF FF 
   247)      1061.0  Rx         003C  8  FF 5F 00 00 00 00 FF FF 
   248)      1062.0  Rx         03E9  8  16 00 00 00 00 00 00 00 
   249)      1063.0  Rx         0431  8  CA FF 0B 02 69 26 F3 4B 
   250)      1064.0  Rx         012F  8  F5 28 8A 1D F1 35 30 80 
   251)      1065.0  Rx         02F1  8  00 00 96 00 00 00 00 A0 
   252)      1066.0  Rx         0560  8  00 00 00 00 FE 00 00 60 
   253)      1069.0  Rx         0112  8  FE 1F 39 0F 40 01 65 61 
   254)      1069.2  Rx         01A1  5  7C CB 00 00 8A 
   255)      1080.0  Rx         0112  8  FE 1F 39 0F 40 01 65 61 
   256)      1091.0  Rx         0112  8  FE 1F 39 0F 40 01 65 61 
   257)      1091.2  Rx         01A1  5  7C CB 00 00 8A 
   258)      1102.0  Rx         0112  8  FE 1F 39 0F 40 01 65 61 
   259)      1113.0  Rx         0112  8  FE 1F 39 0F 40 01 65 61 
   260)      1113.2  Rx         01A1  5  7C CB 00 00 8A 
   261)      1124.0  Rx         0112  8  FE 1F 39 0F 40 01 65 61 
   262)      1135.0  Rx         0112  8  FE 1F 39 0F 40 01 65 61 
   263)      1135.2  Rx         01A1  5  7C CB 00 00 8A 
   264)      1146.0  Rx         0112  8  FE 1F 39 0F 40 01 65 61 
   265)      1157.0  Rx         0112  8  FE 1F 39 0F 40 01 65 61 
   266)      1157.2  Rx         01A1  5  7C CB 00 00 8A 
   267)      1162.0  Rx         003C  8  FF 5F 00 00 00 00 FF FF 
   268)      1163.0  Rx         03E9  8  16 00 00 00 00 00 00 00 
   269)      1164.0  Rx         0431  8  CA FF 0B 02 69 26 F3 4B 
   270)      1165.0  Rx         012F  8  F5 28 8A 1D F1 35 30 80 
   271)      1166.0  Rx         02F1  8  00 00 96 00 00 00 00 A0 
   272)      1167.0  Rx         0560  8  00 00 00 00 FE 00 00 60 
   273)      1167.2  Rx         02FA  8  FD FF 00 00 FF FF FF FF 
   274)      1168.0  Rx         0432  8  2C E2 10 A3 40 FF 02 FF 
   275)      1169.0  Rx         051A  8  00 00 00 00 50 00 00 1A 
   276)      1170.0  Rx         0540  8  00 00 00 00 FD 3C FF 40 
   277)      1171.0  Rx         0510  8  40 10 20 00 00 00 00 00 
   278)      1172.1  Rx         0112  8  FE 1F 39 0F 40 01 65 61 
   279)      1183.0  Rx         0112  8  FE 1F 39 0F 40 01 65 61 
   280)      1183.2  Rx         01A1  5  7C CB 00 00 8A 
   281)      1194.0  Rx         0112  8  FE 1F 39 0F 40 01 65 61 
   282)      1205.0  Rx         0112  8  FE 1F 39 0F 40 01 65 61 
   283)      1205.2  Rx         01A1  5  7C CB 00 00 8A 
   284)      1216.0  Rx         0112  8  FE 1F 39 0F 40 01 65 61 
   285)      1226.0  Rx         03B4  8  00 00 0C F0 98 FF 00 00 
   286)      1227.0  Rx         0112  8  FE 1F 39 0F 40 01 65 61 
   287)      1227.2  Rx         01A1  5  7C CB 00 00 8A 
   288)      1238.0  Rx         0112  8  FE 1F 39 0F 40 01 65 61 
   289)      1249.0  Rx         0112  8  FE 1F 39 0F 40 01 65 61 
   290)      1249.2  Rx         01A1  5  7C CB 00 00 8A 
   291)      1260.0  Rx         0112  8  FE 1F 39 0F 40 01 65 61 
   292)      1261.5  Rx         0272  8  A3 F9 00 12 FF FF FF FF 
   293)      1263.0  Rx         003C  8  FF 5F 00 00 00 00 FF FF 
   294)      1264.0  Rx         03E9  8  16 00 00 00 00 00 00 00 
   295)      1265.0  Rx         0431  8  CA FF 0B 02 69 26 F3 4B 
   296)      1266.0  Rx         012F  8  F5 28 8A 1D F1 35 30 80 
   297)      1267.0  Rx         02F1  8  00 00 96 00 00 00 00 A0 
   298)      1268.0  Rx         0560  8  00 00 00 00 FE 00 00 60 
   299)      1271.0  Rx         0112  8  FE 1F 39 0F 40 01 65 61 
   300)      1271.2  Rx         01A1  5  7C CB 00 00 8A 
   301)      1282.0  Rx         0112  8  FE 1F 39 0F 40 01 65 61 
   302)      1293.0  Rx         0112  8  FE 1F 39 0F 40 01 65 61 
   303)      1293.2  Rx         01A1  5  7C CB 00 00 8A 
   304)      1304.0  Rx         0112  8  FE 1F 39 0F 40 01 65 61 
   305)      1315.0  Rx         0112  8  FE 1F 39 0F 40 01 65 61 
   306)      1315.2  Rx         01A1  5  7C CB 00 00 8A 
   307)      1326.0  Rx         0112  8  FE 1F 39 0F 40 01 65 61 
   308)      1337.0  Rx         0112  8  FE 1F 39 0F 40 01 65 61 
   309)      1337.2  Rx         01A1  5  7C CB 00 00 8A 
   310)      1348.0  Rx         0112  8  FE 1F 39 0F 40 01 65 61 
   311)      1359.0  Rx         0112  8  FE 1F 39 0F 40 01 65 61 
   312)      1359.2  Rx         01A1  5  7C CB 00 00 8A 
   313)      1364.0  Rx         003C  8  FF 5F 00 00 00 00 FF FF 
   314)      1365.0  Rx         03E9  8  16 00 00 00 00 00 00 00 
   315)      1366.0  Rx         0431  8  CA FF 0B 02 69 26 F3 4B 
   316)      1367.0  Rx         012F  8  F5 28 8A 1D F1 35 30 80 
   317)      1368.0  Rx         02F1  8  00 00 96 00 00 00 00 A0 
   318)      1369.0  Rx         0560  8  00 00 00 00 FE 00 00 60 
   319)      1369.3  Rx         02FA  8  FD FF 00 00 FF FF FF FF 
   320)      1370.0  Rx         0432  8  2C E2 10 A3 40 FF 02 FF 
   321)      1371.0  Rx         051A  8  00 00 00 00 50 00 00 1A 
   322)      1372.0  Rx         0540  8  00 00 00 00 FD 3C FF 40 
   323)      1373.0  Rx         0510  8  40 10 20 00 00 00 00 00 
   324)      1374.0  Rx         0328  6  89 00 00 00 87 1E 
   325)      1374.9  Rx         03E8  2  F1 FF 
   326)      1376.0  Rx         03F9  8  C0 F9 80 E0 43 3C C3 FF 
   327)      1377.1  Rx         0112  8  FE 1F 39 0F 40 01 65 61 
   328)      1388.0  Rx         0112  8  FE 1F 39 0F 40 01 65 61 
   329)      1388.2  Rx         01A1  5  7C CB 00 00 8A 
   330)      1399.0  Rx         0112  8  FE 1F 39 0F 40 01 65 61 
   331)      1410.0  Rx         0112  8  FE 1F 39 0F 40 01 65 61 
   332)      1410.2  Rx         01A1  5  7C CB 00 00 8A 
   333)      1421.0  Rx         0112  8  FE 1F 39 0F 40 01 65 61 
   334)      1426.3  Rx         03B4  8  00 00 0C F0 98 FF 00 00 
   335)      1432.0  Rx         0112  8  FE 1F 39 0F 40 01 65 61 
   336)      1432.2  Rx         01A1  5  7C CB 00 00 8A 
   337)      1443.0  Rx         0112  8  FE 1F 39 0F 40 01 65 61 
   338)      1454.0  Rx         0112  8  FE 1F 39 0F 40 01 65 61 
   339)      1454.2  Rx         01A1  5  7C CB 00 00 8A 
   340)      1461.4  Rx         0272  8  44 FA 00 12 FF FF FF FF 
   341)      1465.0  Rx         0112  8  FE 1F 39 0F 40 01 65 61 
   342)      1465.3  Rx         003C  8  FF 5F 00 00 00 00 FF FF 
   343)      1466.0  Rx         03E9  8  16 00 00 00 00 00 00 00 
   344)      1467.0  Rx         0431  8  CA FF 0B 02 69 26 F3 4B 
   345)      1468.0  Rx         012F  8  F5 28 8A 1D F1 35 30 80 
   346)      1469.0  Rx         02F1  8  00 00 96 00 00 00 00 A0 
   347)      1470.0  Rx         0560  8  00 00 00 00 FE 00 00 60 
   348)      1476.0  Rx         0112  8  FE 1F 39 0F 40 01 65 61 
   349)      1476.2  Rx         01A1  5  7C CB 00 00 8A 
   350)      1487.0  Rx         0112  8  FE 1F 39 0F 40 01 65 61 
   351)      1498.0  Rx         0112  8  FE 1F 39 0F 40 01 65 61 
   352)      1498.2  Rx         01A1  5  7C CB 00 00 8A 
   353)      1509.0  Rx         0112  8  FE 1F 39 0F 40 01 65 61 
   354)      1520.0  Rx         0112  8  FE 1F 39 0F 40 01 65 61 
   355)      1520.2  Rx         01A1  5  7C CB 00 00 8A 
   356)      1531.0  Rx         0112  8  FE 1F 39 0F 40 01 65 61 
   357)      1542.0  Rx         0112  8  FE 1F 39 0F 40 01 65 61 
   358)      1542.2  Rx         01A1  5  7C CB 00 00 8A 
   359)      1553.0  Rx         0112  8  FE 1F 39 0F 40 01 65 61 
   360)      1564.0  Rx         0112  8  FE 1F 39 0F 40 01 65 61 
   361)      1564.2  Rx         01A1  5  7C CB 00 00 8A 
   362)      1566.0  Rx         003C  8  FF 5F 00 00 00 00 FF FF 
   363)      1567.0  Rx         03E9  8  16 00 00 00 00 00 00 00 
   364)      1568.0  Rx         0431  8  CA FF 0B 02 69 26 F3 4B 
   365)      1569.0  Rx         012F  8  F5 28 8A 1D F1 35 30 80 
   366)      1570.0  Rx         02F1  8  00 00 96 00 00 00 00 A0 
   367)      1571.0  Rx         0560  8  00 00 00 00 FE 00 00 60 
   368)      1571.3  Rx         02FA  8  FD FF 00 00 FF FF FF FF 
   369)      1572.0  Rx         0432  8  2C E2 10 A3 40 FF 02 FF 
   370)      1573.0  Rx         051A  8  00 00 00 00 50 00 00 1A 
   371)      1574.0  Rx         0540  8  00 00 00 00 FD 3C FF 40 
   372)      1575.0  Rx         0510  8  40 10 20 00 00 00 00 00 
   373)      1576.1  Rx         0112  8  FE 1F 39 0F 40 01 65 61 
   374)      1587.0  Rx         0112  8  FE 1F 39 0F 40 01 65 61 
   375)      1587.2  Rx         01A1  5  7C CB 00 00 8A 
   376)      1598.0  Rx         0112  8  FE 1F 39 0F 40 01 65 61 
