;$FILEVERSION=1.1
;$STARTTIME=44834.5961590162
;
;   Start time: 30.9.2022 14.18.28.139.0
;   Generated by PCAN-View v5.0.2.838
;
;   Message Number
;   |         Time Offset (ms)
;   |         |        Type
;   |         |        |        ID (hex)
;   |         |        |        |     Data Length
;   |         |        |        |     |   Data Bytes (hex) ...
;   |         |        |        |     |   |
;---+--   ----+----  --+--  ----+---  +  -+ -- -- -- -- -- -- --
     1)         0.2  Rx         0112  8  F7 1F 45 0F 5E 01 65 61 
     2)         0.4  Rx         01A1  5  7C CB 00 00 8A 
     3)        10.6  Rx         0337  2  FF FF 
     4)        10.9  Rx         03B4  8  00 00 0C F0 98 FF 00 00 
     5)        11.1  Rx         0112  8  F7 1F 45 0F 5E 01 65 61 
     6)        22.1  Rx         0112  8  F7 1F 45 0F 5E 01 65 61 
     7)        22.3  Rx         01A1  5  7C CB 00 00 8A 
     8)        33.1  Rx         0112  8  F7 1F 45 0F 5E 01 65 61 
     9)        44.1  Rx         0112  8  F7 1F 45 0F 5E 01 65 61 
    10)        44.3  Rx         01A1  5  7C CB 00 00 8A 
    11)        45.9  Rx         0272  8  CB F3 00 12 FF FF FF FF 
    12)        55.1  Rx         0112  8  F7 1F 45 0F 5E 01 65 61 
    13)        66.1  Rx         0112  8  F7 1F 45 0F 5E 01 65 61 
    14)        66.3  Rx         01A1  5  7C CB 00 00 8A 
    15)        77.1  Rx         0112  8  F7 1F 45 0F 5E 01 65 61 
    16)        88.1  Rx         0112  8  F7 1F 45 0F 5E 01 65 61 
    17)        88.3  Rx         01A1  5  7C CB 00 00 8A 
    18)        91.1  Rx         003C  8  FF 5F 00 00 00 00 FF FF 
    19)        92.1  Rx         03E9  8  16 00 00 00 00 00 00 00 
    20)        93.1  Rx         0431  8  CA FF 0B 02 69 26 F3 4B 
    21)        94.1  Rx         012F  8  F5 28 8A 1D F1 35 30 80 
    22)        95.1  Rx         02F1  8  B8 11 96 4A 09 F2 06 A0 
    23)        96.1  Rx         0560  8  00 00 00 00 FE 00 00 60 
    24)        99.1  Rx         0112  8  F7 1F 45 0F 5E 01 65 61 
    25)       110.1  Rx         0112  8  F7 1F 45 0F 5E 01 65 61 
    26)       110.3  Rx         01A1  5  7C CB 00 00 8A 
    27)       121.1  Rx         0112  8  F7 1F 45 0F 5E 01 65 61 
    28)       132.1  Rx         0112  8  F7 1F 45 0F 5E 01 65 61 
    29)       132.3  Rx         01A1  5  7C CB 00 00 8A 
    30)       143.1  Rx         0112  8  F7 1F 45 0F 5E 01 65 61 
    31)       154.1  Rx         0112  8  F7 1F 45 0F 5E 01 65 61 
    32)       154.3  Rx         01A1  5  7C CB 00 00 8A 
    33)       165.1  Rx         0112  8  F7 1F 45 0F 5E 01 65 61 
    34)       176.1  Rx         0112  8  F7 1F 45 0F 5E 01 65 61 
    35)       176.3  Rx         01A1  5  7C CB 00 00 8A 
    36)       187.1  Rx         0112  8  F7 1F 45 0F 5E 01 65 61 
    37)       192.1  Rx         003C  8  FF 5F 00 00 00 00 FF FF 
    38)       193.1  Rx         03E9  8  16 00 00 00 00 00 00 00 
    39)       194.1  Rx         0431  8  CA FF 0B 02 69 26 F3 4B 
    40)       195.1  Rx         012F  8  F5 28 8A 1D F1 35 30 80 
    41)       196.1  Rx         02F1  8  B8 11 96 4A 09 F2 06 A0 
    42)       197.1  Rx         0560  8  00 00 00 00 FE 00 00 60 
    43)       197.4  Rx         02FA  8  FD FF 00 00 FF FF FF FF 
    44)       198.1  Rx         0432  8  2C E2 10 A3 46 FF 02 FF 
    45)       199.1  Rx         051A  8  00 00 00 00 50 00 00 1A 
    46)       200.1  Rx         0540  8  00 00 00 00 FD 3C FF 40 
    47)       201.1  Rx         0510  8  40 10 20 00 00 00 00 00 
    48)       202.1  Rx         0112  8  F7 1F 45 0F 5E 01 65 61 
    49)       202.3  Rx         01A1  5  7C CB 00 00 8A 
    50)       211.1  Rx         03B4  8  00 00 0C F0 98 FF 00 00 
    51)       213.1  Rx         0112  8  F7 1F 45 0F 5E 01 65 61 
    52)       224.1  Rx         0112  8  F7 1F 45 0F 5E 01 65 61 
    53)       224.2  Rx         01A1  5  7C CB 00 00 8A 
    54)       235.1  Rx         0112  8  F7 1F 45 0F 5E 01 65 61 
    55)       246.1  Rx         0112  8  F7 1F 45 0F 5E 01 65 61 
    56)       246.3  Rx         01A1  5  7C CB 00 00 8A 
    57)       246.5  Rx         0272  8  45 F4 00 12 FF FF FF FF 
    58)       257.1  Rx         0112  8  F7 1F 45 0F 5E 01 65 61 
    59)       268.1  Rx         0112  8  F7 1F 45 0F 5E 01 65 61 
    60)       268.3  Rx         01A1  5  7C CB 00 00 8A 
    61)       279.1  Rx         0112  8  F7 1F 45 0F 5E 01 65 61 
    62)       290.1  Rx         0112  8  F7 1F 45 0F 5E 01 65 61 
    63)       290.3  Rx         01A1  5  7C CB 00 00 8A 
    64)       293.1  Rx         003C  8  FF 5F 00 00 00 00 FF FF 
    65)       294.1  Rx         03E9  8  16 00 00 00 00 00 00 00 
    66)       295.1  Rx         0431  8  CA FF 0B 02 69 26 F3 4B 
    67)       296.1  Rx         012F  8  F5 28 8A 1D F1 35 30 80 
    68)       297.1  Rx         02F1  8  B8 11 96 4A 09 F2 06 A0 
    69)       298.1  Rx         0560  8  00 00 00 00 FE 00 00 60 
    70)       301.1  Rx         0112  8  F7 1F 45 0F 5E 01 65 61 
    71)       312.1  Rx         0112  8  F7 1F 45 0F 5E 01 65 61 
    72)       312.3  Rx         01A1  5  7C CB 00 00 8A 
    73)       323.1  Rx         0112  8  F7 1F 45 0F 5E 01 65 61 
    74)       334.1  Rx         0112  8  F7 1F 45 0F 5E 01 65 61 
    75)       334.3  Rx         01A1  5  7C CB 00 00 8A 
    76)       345.1  Rx         0112  8  F7 1F 45 0F 5E 01 65 61 
    77)       356.1  Rx         0112  8  F7 1F 45 0F 5E 01 65 61 
    78)       356.3  Rx         01A1  5  7C CB 00 00 8A 
    79)       361.3  Rx         03C3  8  85 14 09 92 24 49 92 24 
    80)       367.1  Rx         0112  8  F7 1F 45 0F 5E 01 65 61 
    81)       378.1  Rx         0112  8  F7 1F 45 0F 5E 01 65 61 
    82)       378.3  Rx         01A1  5  7C CB 00 00 8A 
    83)       389.1  Rx         0112  8  F7 1F 45 0F 5E 01 65 61 
    84)       394.1  Rx         003C  8  FF 5F 00 00 00 00 FF FF 
    85)       395.1  Rx         03E9  8  16 00 00 00 00 00 00 00 
    86)       396.1  Rx         0431  8  CA FF 0B 02 69 26 F3 4B 
    87)       397.1  Rx         012F  8  F5 28 8A 1D F1 35 30 80 
    88)       398.1  Rx         02F1  8  B8 11 96 4A 09 F2 06 A0 
    89)       399.1  Rx         0560  8  00 00 00 00 FE 00 00 60 
    90)       399.4  Rx         02FA  8  FD FF 00 00 FF FF FF FF 
    91)       400.1  Rx         0432  8  2C E2 10 A3 46 FF 02 FF 
    92)       401.1  Rx         051A  8  00 00 00 00 50 00 00 1A 
    93)       402.1  Rx         0540  8  00 00 00 00 FD 3C FF 40 
    94)       403.1  Rx         0510  8  40 10 20 00 00 00 00 00 
    95)       404.2  Rx         0112  8  F7 1F 45 0F 5E 01 65 61 
    96)       404.3  Rx         01A1  5  7C CB 00 00 8A 
    97)       411.4  Rx         03B4  8  00 00 0C F0 98 FF 00 00 
    98)       415.1  Rx         0112  8  F7 1F 45 0F 5E 01 65 61 
    99)       426.1  Rx         0112  8  F7 1F 45 0F 5E 01 65 61 
   100)       426.3  Rx         01A1  5  7C CB 00 00 8A 
   101)       437.1  Rx         0112  8  F7 1F 45 0F 5E 01 65 61 
   102)       446.5  Rx         0272  8  18 F5 00 12 FF FF FF FF 
   103)       448.1  Rx         0112  8  F7 1F 45 0F 5E 01 65 61 
   104)       448.3  Rx         01A1  5  7C CB 00 00 8A 
   105)       459.1  Rx         0112  8  F7 1F 45 0F 5E 01 65 61 
   106)       470.1  Rx         0112  8  F7 1F 45 0F 5E 01 65 61 
   107)       470.3  Rx         01A1  5  7C CB 00 00 8A 
   108)       481.1  Rx         0112  8  F7 1F 45 0F 5E 01 65 61 
   109)       492.1  Rx         0112  8  F7 1F 45 0F 5E 01 65 61 
   110)       492.3  Rx         01A1  5  7C CB 00 00 8A 
   111)       495.1  Rx         003C  8  FF 5F 00 00 00 00 FF FF 
   112)       496.1  Rx         03E9  8  16 00 00 00 00 00 00 00 
   113)       497.1  Rx         0431  8  CA FF 0B 02 69 26 F3 4B 
   114)       498.1  Rx         012F  8  F5 28 8A 1D F1 35 30 80 
   115)       499.1  Rx         02F1  8  B8 11 96 4A 09 F2 06 A0 
   116)       500.1  Rx         0560  8  00 00 00 00 FE 00 00 60 
   117)       503.1  Rx         0112  8  F7 1F 45 0F 5E 01 65 61 
   118)       514.2  Rx         0112  8  F7 1F 45 0F 5E 01 65 61 
   119)       514.3  Rx         01A1  5  7C CB 00 00 8A 
   120)       525.1  Rx         0112  8  F7 1F 45 0F 5E 01 65 61 
   121)       536.1  Rx         0112  8  F7 1F 45 0F 5E 01 65 61 
   122)       536.3  Rx         01A1  5  7C CB 00 00 8A 
   123)       547.1  Rx         0112  8  F7 1F 45 0F 5E 01 65 61 
   124)       558.1  Rx         0112  8  F7 1F 45 0F 5E 01 65 61 
   125)       558.3  Rx         01A1  5  7C CB 00 00 8A 
   126)       569.1  Rx         0112  8  F7 1F 45 0F 5E 01 65 61 
   127)       580.1  Rx         0112  8  F7 1F 45 0F 5E 01 65 61 
   128)       580.3  Rx         01A1  5  7C CB 00 00 8A 
   129)       591.1  Rx         0112  8  F7 1F 45 0F 5E 01 65 61 
   130)       596.2  Rx         003C  8  FF 5F 00 00 00 00 FF FF 
   131)       597.1  Rx         03E9  8  16 00 00 00 00 00 00 00 
   132)       598.1  Rx         0431  8  CA FF 0B 02 69 26 F3 4B 
   133)       599.1  Rx         012F  8  F5 28 8A 1D F1 35 30 80 
   134)       600.1  Rx         02F1  8  B8 11 96 4A 09 F2 06 A0 
   135)       601.1  Rx         0560  8  00 00 00 00 FE 00 00 60 
   136)       601.4  Rx         02FA  8  FD FF 00 00 FF FF FF FF 
   137)       602.1  Rx         0432  8  2C E2 10 A3 46 FF 02 FF 
   138)       603.2  Rx         051A  8  00 00 00 00 50 00 00 1A 
   139)       604.1  Rx         0540  8  00 00 00 00 FD 3C FF 40 
   140)       605.2  Rx         0510  8  40 10 20 00 00 00 00 00 
   141)       606.2  Rx         0112  8  F7 1F 45 0F 5E 01 65 61 
   142)       606.4  Rx         01A1  5  7C CB 00 00 8A 
   143)       611.7  Rx         03B4  8  00 00 0C F0 98 FF 00 00 
   144)       617.1  Rx         0112  8  F7 1F 45 0F 5E 01 65 61 
   145)       628.1  Rx         0112  8  F7 1F 45 0F 5E 01 65 61 
   146)       628.3  Rx         01A1  5  7C CB 00 00 8A 
   147)       639.1  Rx         0112  8  F7 1F 45 0F 5E 01 65 61 
   148)       646.8  Rx         0272  8  FF F6 00 12 FF FF FF FF 
   149)       650.1  Rx         0112  8  F7 1F 45 0F 5E 01 65 61 
   150)       650.3  Rx         01A1  5  7C CB 00 00 8A 
   151)       661.1  Rx         0112  8  F7 1F 45 0F 5E 01 65 61 
   152)       672.1  Rx         0112  8  F7 1F 45 0F 5E 01 65 61 
   153)       672.3  Rx         01A1  5  7C CB 00 00 8A 
   154)       683.1  Rx         0112  8  F7 1F 45 0F 5E 01 65 61 
   155)       694.1  Rx         0112  8  F7 1F 45 0F 5E 01 65 61 
   156)       694.3  Rx         01A1  5  7C CB 00 00 8A 
   157)       697.1  Rx         003C  8  FF 5F 00 00 00 00 FF FF 
   158)       698.1  Rx         03E9  8  16 00 00 00 00 00 00 00 
   159)       699.1  Rx         0431  8  CA FF 0B 02 69 26 F3 4B 
   160)       700.1  Rx         012F  8  F5 28 8A 1D F1 35 30 80 
   161)       701.1  Rx         02F1  8  B8 11 96 4A 09 F2 06 A0 
   162)       702.1  Rx         0560  8  00 00 00 00 FE 00 00 60 
   163)       705.1  Rx         0112  8  F7 1F 45 0F 5E 01 65 61 
   164)       716.1  Rx         0112  8  F7 1F 45 0F 5E 01 65 61 
   165)       716.3  Rx         01A1  5  7C CB 00 00 8A 
   166)       727.1  Rx         0112  8  F7 1F 45 0F 5E 01 65 61 
   167)       738.1  Rx         0112  8  F7 1F 45 0F 5E 01 65 61 
   168)       738.3  Rx         01A1  5  7C CB 00 00 8A 
   169)       749.1  Rx         0112  8  F7 1F 45 0F 5E 01 65 61 
   170)       760.1  Rx         0112  8  F7 1F 45 0F 5E 01 65 61 
   171)       760.3  Rx         01A1  5  7C CB 00 00 8A 
   172)       771.1  Rx         0112  8  F7 1F 45 0F 5E 01 65 61 
   173)       782.1  Rx         0112  8  F7 1F 45 0F 5E 01 65 61 
   174)       782.3  Rx         01A1  5  7C CB 00 00 8A 
   175)       793.1  Rx         0112  8  F7 1F 45 0F 5E 01 65 61 
   176)       798.1  Rx         003C  8  FF 5F 00 00 00 00 FF FF 
   177)       799.1  Rx         03E9  8  16 00 00 00 00 00 00 00 
   178)       800.1  Rx         0431  8  CA FF 0B 02 69 26 F3 4B 
   179)       801.1  Rx         012F  8  F5 28 8A 1D F1 35 30 80 
   180)       802.1  Rx         02F1  8  B8 11 96 4A 09 F2 06 A0 
   181)       803.1  Rx         0560  8  00 00 00 00 FE 00 00 60 
   182)       803.4  Rx         02FA  8  FD FF 00 00 FF FF FF FF 
   183)       804.1  Rx         0432  8  2C E2 10 A3 46 FF 02 FF 
   184)       805.1  Rx         051A  8  00 00 00 00 50 00 00 1A 
   185)       806.2  Rx         0540  8  00 00 00 00 FD 3C FF 40 
   186)       807.1  Rx         0510  8  40 10 20 00 00 00 00 00 
   187)       808.1  Rx         0328  6  77 00 00 00 87 1E 
   188)       809.0  Rx         03E8  2  F1 FF 
   189)       810.1  Rx         03F9  8  C0 F9 80 E0 43 3C C3 FF 
   190)       811.2  Rx         0112  8  F7 1F 45 0F 5E 01 65 61 
   191)       811.4  Rx         01A1  5  7C CB 00 00 8A 
   192)       812.0  Rx         03B4  8  00 00 0C F0 98 FF 00 00 
   193)       822.1  Rx         0112  8  F7 1F 45 0F 5E 01 65 61 
   194)       833.1  Rx         0112  8  F7 1F 45 0F 5E 01 65 61 
   195)       833.3  Rx         01A1  5  7C CB 00 00 8A 
   196)       844.1  Rx         0112  8  F7 1F 45 0F 5E 01 65 61 
   197)       847.4  Rx         0272  8  A2 F7 00 12 FF FF FF FF 
   198)       855.1  Rx         0112  8  F7 1F 45 0F 5E 01 65 61 
   199)       855.3  Rx         01A1  5  7C CB 00 00 8A 
   200)       866.1  Rx         0112  8  F7 1F 45 0F 5E 01 65 61 
   201)       877.1  Rx         0112  8  F7 1F 45 0F 5E 01 65 61 
   202)       877.3  Rx         01A1  5  7C CB 00 00 8A 
   203)       888.1  Rx         0112  8  F7 1F 45 0F 5E 01 65 61 
   204)       899.1  Rx         0112  8  F7 1F 45 0F 5E 01 65 61 
   205)       899.4  Rx         003C  8  FF 5F 00 00 00 00 FF FF 
   206)       899.6  Rx         01A1  5  7C CB 00 00 8A 
   207)       900.2  Rx         03E9  8  16 00 00 00 00 00 00 00 
   208)       901.1  Rx         0431  8  CA FF 0B 02 69 26 F3 4B 
   209)       902.1  Rx         012F  8  F5 28 8A 1D F1 35 30 80 
   210)       903.1  Rx         02F1  8  B8 11 96 4A 09 F2 06 A0 
   211)       904.2  Rx         0560  8  00 00 00 00 FE 00 00 60 
   212)       910.1  Rx         0112  8  F7 1F 45 0F 5E 01 65 61 
   213)       921.1  Rx         0112  8  F7 1F 45 0F 5E 01 65 61 
   214)       921.3  Rx         01A1  5  7C CB 00 00 8A 
   215)       932.1  Rx         0112  8  F7 1F 45 0F 5E 01 65 61 
   216)       943.1  Rx         0112  8  F7 1F 45 0F 5E 01 65 61 
   217)       943.3  Rx         01A1  5  7C CB 00 00 8A 
   218)       954.1  Rx         0112  8  F7 1F 45 0F 5E 01 65 61 
   219)       965.1  Rx         0112  8  F7 1F 45 0F 5E 01 65 61 
   220)       965.3  Rx         01A1  5  7C CB 00 00 8A 
   221)       976.1  Rx         0112  8  F7 1F 45 0F 5E 01 65 61 
   222)       987.1  Rx         0112  8  F7 1F 45 0F 5E 01 65 61 
   223)       987.3  Rx         01A1  5  7C CB 00 00 8A 
   224)       998.1  Rx         0112  8  F7 1F 45 0F 5E 01 65 61 
   225)      1000.1  Rx         003C  8  FF 5F 00 00 00 00 FF FF 
   226)      1001.1  Rx         03E9  8  16 00 00 00 00 00 00 00 
   227)      1002.1  Rx         0431  8  CA FF 0B 02 69 26 F3 4B 
   228)      1003.1  Rx         012F  8  F5 28 8A 1D F1 35 30 80 
   229)      1004.1  Rx         02F1  8  B8 11 96 4A 09 F2 06 A0 
   230)      1005.2  Rx         0560  8  00 00 00 00 FE 00 00 60 
   231)      1005.4  Rx         02FA  8  FD FF 00 00 FF FF FF FF 
   232)      1006.1  Rx         0432  8  2C E2 10 A3 46 FF 02 FF 
   233)      1007.2  Rx         051A  8  00 00 00 00 50 00 00 1A 
   234)      1008.1  Rx         0540  8  00 00 00 00 FD 3C FF 40 
   235)      1009.2  Rx         0510  8  40 10 20 00 00 00 00 00 
   236)      1010.2  Rx         0112  8  F7 1F 45 0F 5E 01 65 61 
   237)      1010.4  Rx         01A1  5  7C CB 00 00 8A 
   238)      1012.2  Rx         0337  2  FF FF 
   239)      1012.5  Rx         03B4  8  00 00 0C F0 98 FF 00 00 
   240)      1021.1  Rx         0112  8  F7 1F 45 0F 5E 01 65 61 
   241)      1032.1  Rx         0112  8  F7 1F 45 0F 5E 01 65 61 
   242)      1032.3  Rx         01A1  5  7C CB 00 00 8A 
   243)      1043.1  Rx         0112  8  F7 1F 45 0F 5E 01 65 61 
   244)      1047.5  Rx         0272  8  FE F8 00 12 FF FF FF FF 
   245)      1054.1  Rx         0112  8  F7 1F 45 0F 5E 01 65 61 
   246)      1054.3  Rx         01A1  5  7C CB 00 00 8A 
   247)      1065.1  Rx         0112  8  F7 1F 45 0F 5E 01 65 61 
   248)      1076.1  Rx         0112  8  F7 1F 45 0F 5E 01 65 61 
   249)      1076.3  Rx         01A1  5  7C CB 00 00 8A 
   250)      1087.1  Rx         0112  8  F7 1F 45 0F 5E 01 65 61 
   251)      1098.1  Rx         0112  8  F7 1F 45 0F 5E 01 65 61 
   252)      1098.3  Rx         01A1  5  7C CB 00 00 8A 
   253)      1101.1  Rx         003C  8  FF 5F 00 00 00 00 FF FF 
   254)      1102.1  Rx         03E9  8  16 00 00 00 00 00 00 00 
   255)      1103.1  Rx         0431  8  CA FF 0B 02 69 26 F3 4B 
   256)      1104.1  Rx         012F  8  F5 28 8A 1D F1 35 30 80 
   257)      1105.1  Rx         02F1  8  B8 11 96 4A 09 F2 06 A0 
   258)      1106.1  Rx         0560  8  00 00 00 00 FE 00 00 60 
   259)      1109.1  Rx         0112  8  F7 1F 45 0F 5E 01 65 61 
   260)      1120.1  Rx         0112  8  F7 1F 45 0F 5E 01 65 61 
   261)      1120.3  Rx         01A1  5  7C CB 00 00 8A 
   262)      1131.1  Rx         0112  8  F7 1F 45 0F 5E 01 65 61 
   263)      1142.1  Rx         0112  8  F7 1F 45 0F 5E 01 65 61 
   264)      1142.3  Rx         01A1  5  7C CB 00 00 8A 
   265)      1153.1  Rx         0112  8  F7 1F 45 0F 5E 01 65 61 
   266)      1164.1  Rx         0112  8  F7 1F 45 0F 5E 01 65 61 
   267)      1164.3  Rx         01A1  5  7C CB 00 00 8A 
   268)      1175.1  Rx         0112  8  F7 1F 45 0F 5E 01 65 61 
   269)      1186.1  Rx         0112  8  F7 1F 45 0F 5E 01 65 61 
   270)      1186.3  Rx         01A1  5  7C CB 00 00 8A 
   271)      1197.1  Rx         0112  8  F7 1F 45 0F 5E 01 65 61 
   272)      1202.1  Rx         003C  8  FF 5F 00 00 00 00 FF FF 
   273)      1203.1  Rx         03E9  8  16 00 00 00 00 00 00 00 
   274)      1204.1  Rx         0431  8  CA FF 0B 02 69 26 F3 4B 
   275)      1205.1  Rx         012F  8  F5 28 8A 1D F1 35 30 80 
   276)      1206.1  Rx         02F1  8  B8 11 96 4A 09 F2 06 A0 
   277)      1207.1  Rx         0560  8  00 00 00 00 FE 00 00 60 
   278)      1207.4  Rx         02FA  8  FD FF 00 00 FF FF FF FF 
   279)      1208.1  Rx         0432  8  2C E2 10 A3 46 FF 02 FF 
   280)      1209.1  Rx         051A  8  00 00 00 00 50 00 00 1A 
   281)      1210.1  Rx         0540  8  00 00 00 00 FD 3C FF 40 
   282)      1211.1  Rx         0510  8  40 10 20 00 00 00 00 00 
   283)      1212.2  Rx         0112  8  F7 1F 45 0F 5E 01 65 61 
   284)      1212.3  Rx         01A1  5  7C CB 00 00 8A 
   285)      1212.7  Rx         03B4  8  00 00 0C F0 98 FF 00 00 
   286)      1223.1  Rx         0112  8  F7 1F 45 0F 5E 01 65 61 
   287)      1234.1  Rx         0112  8  F7 1F 45 0F 5E 01 65 61 
   288)      1234.3  Rx         01A1  5  7C CB 00 00 8A 
   289)      1245.1  Rx         0112  8  F7 1F 45 0F 5E 01 65 61 
   290)      1247.8  Rx         0272  8  A3 F9 00 12 FF FF FF FF 
   291)      1256.1  Rx         0112  8  F7 1F 45 0F 5E 01 65 61 
   292)      1256.3  Rx         01A1  5  7C CB 00 00 8A 
   293)      1267.1  Rx         0112  8  F7 1F 45 0F 5E 01 65 61 
   294)      1278.1  Rx         0112  8  F7 1F 45 0F 5E 01 65 61 
   295)      1278.3  Rx         01A1  5  7C CB 00 00 8A 
   296)      1289.1  Rx         0112  8  F7 1F 45 0F 5E 01 65 61 
   297)      1300.1  Rx         0112  8  F7 1F 45 0F 5E 01 65 61 
   298)      1300.3  Rx         01A1  5  7C CB 00 00 8A 
   299)      1303.1  Rx         003C  8  FF 5F 00 00 00 00 FF FF 
   300)      1304.2  Rx         03E9  8  16 00 00 00 00 00 00 00 
   301)      1305.1  Rx         0431  8  CA FF 0B 02 69 26 F3 4B 
   302)      1306.1  Rx         012F  8  F5 28 8A 1D F1 35 30 80 
   303)      1307.1  Rx         02F1  8  B8 11 96 4A 09 F2 06 A0 
   304)      1308.1  Rx         0560  8  00 00 00 00 FE 00 00 60 
   305)      1311.1  Rx         0112  8  F7 1F 45 0F 5E 01 65 61 
   306)      1322.1  Rx         0112  8  F7 1F 45 0F 5E 01 65 61 
   307)      1322.3  Rx         01A1  5  7C CB 00 00 8A 
   308)      1322.8  Rx         03C3  8  86 18 49 92 24 49 92 24 
   309)      1333.1  Rx         0112  8  F7 1F 45 0F 5E 01 65 61 
   310)      1344.2  Rx         0112  8  F7 1F 45 0F 5E 01 65 61 
   311)      1344.3  Rx         01A1  5  7C CB 00 00 8A 
   312)      1355.1  Rx         0112  8  F7 1F 45 0F 5E 01 65 61 
   313)      1366.1  Rx         0112  8  F7 1F 45 0F 5E 01 65 61 
   314)      1366.3  Rx         01A1  5  7C CB 00 00 8A 
   315)      1377.1  Rx         0112  8  F7 1F 45 0F 5E 01 65 61 
   316)      1388.1  Rx         0112  8  F7 1F 45 0F 5E 01 65 61 
   317)      1388.3  Rx         01A1  5  7C CB 00 00 8A 
   318)      1399.1  Rx         0112  8  F7 1F 45 0F 5E 01 65 61 
   319)      1404.1  Rx         003C  8  FF 5F 00 00 00 00 FF FF 
   320)      1405.1  Rx         03E9  8  16 00 00 00 00 00 00 00 
   321)      1406.1  Rx         0431  8  CA FF 0B 02 69 26 F3 4B 
   322)      1407.1  Rx         012F  8  F5 28 8A 1D F1 35 30 80 
   323)      1408.1  Rx         02F1  8  B8 11 96 4A 09 F2 06 A0 
   324)      1409.1  Rx         0560  8  00 00 00 00 FE 00 00 60 
   325)      1409.4  Rx         02FA  8  FD FF 00 00 FF FF FF FF 
   326)      1410.1  Rx         0432  8  2C E2 10 A3 46 FF 02 FF 
   327)      1411.1  Rx         051A  8  00 00 00 00 50 00 00 1A 
   328)      1412.2  Rx         0540  8  00 00 00 00 FD 3C FF 40 
   329)      1413.0  Rx         03B4  8  00 00 0C F0 98 FF 00 00 
   330)      1413.3  Rx         0510  8  40 10 20 00 00 00 00 00 
   331)      1414.2  Rx         0112  8  F7 1F 45 0F 5E 01 65 61 
   332)      1414.4  Rx         01A1  5  7C CB 00 00 8A 
   333)      1425.1  Rx         0112  8  F7 1F 45 0F 5E 01 65 61 
   334)      1436.1  Rx         0112  8  F7 1F 45 0F 5E 01 65 61 
   335)      1436.3  Rx         01A1  5  7C CB 00 00 8A 
   336)      1447.1  Rx         0112  8  F7 1F 45 0F 5E 01 65 61 
   337)      1448.5  Rx         0272  8  44 FA 00 12 FF FF FF FF 
   338)      1458.1  Rx         0112  8  F7 1F 45 0F 5E 01 65 61 
   339)      1458.3  Rx         01A1  5  7C CB 00 00 8A 
   340)      1469.2  Rx         0112  8  F7 1F 45 0F 5E 01 65 61 
   341)      1480.1  Rx         0112  8  F7 1F 45 0F 5E 01 65 61 
   342)      1480.3  Rx         01A1  5  7C CB 00 00 8A 
   343)      1491.1  Rx         0112  8  F7 1F 45 0F 5E 01 65 61 
   344)      1502.1  Rx         0112  8  F7 1F 45 0F 5E 01 65 61 
   345)      1502.3  Rx         01A1  5  7C CB 00 00 8A 
   346)      1505.1  Rx         003C  8  FF 5F 00 00 00 00 FF FF 
   347)      1506.1  Rx         03E9  8  16 00 00 00 00 00 00 00 
   348)      1507.1  Rx         0431  8  CA FF 0B 02 69 26 F3 4B 
   349)      1508.1  Rx         012F  8  F5 28 8A 1D F1 35 30 80 
   350)      1509.1  Rx         02F1  8  B8 11 96 4A 09 F2 06 A0 
   351)      1510.1  Rx         0560  8  00 00 00 00 FE 00 00 60 
   352)      1513.2  Rx         0112  8  F7 1F 45 0F 5E 01 65 61 
   353)      1524.1  Rx         0112  8  F7 1F 45 0F 5E 01 65 61 
   354)      1524.3  Rx         01A1  5  7C CB 00 00 8A 
   355)      1535.1  Rx         0112  8  F7 1F 45 0F 5E 01 65 61 
   356)      1546.1  Rx         0112  8  F7 1F 45 0F 5E 01 65 61 
   357)      1546.3  Rx         01A1  5  7C CB 00 00 8A 
   358)      1557.1  Rx         0112  8  F7 1F 45 0F 5E 01 65 61 
   359)      1568.1  Rx         0112  8  F7 1F 45 0F 5E 01 65 61 
   360)      1568.3  Rx         01A1  5  7C CB 00 00 8A 
   361)      1579.2  Rx         0112  8  F7 1F 45 0F 5E 01 65 61 
   362)      1590.2  Rx         0112  8  F7 1F 45 0F 5E 01 65 61 
   363)      1590.3  Rx         01A1  5  7C CB 00 00 8A 
   364)      1601.1  Rx         0112  8  F7 1F 45 0F 5E 01 65 61 
   365)      1606.1  Rx         003C  8  FF 5F 00 00 00 00 FF FF 
   366)      1607.1  Rx         03E9  8  16 00 00 00 00 00 00 00 
   367)      1608.1  Rx         0431  8  CA FF 0B 02 69 26 F3 4B 
   368)      1609.1  Rx         012F  8  F5 28 8A 1D F1 35 30 80 
   369)      1610.1  Rx         02F1  8  B8 11 96 4A 09 F2 06 A0 
   370)      1611.2  Rx         0560  8  00 00 00 00 FE 00 00 60 
   371)      1611.4  Rx         02FA  8  FD FF 00 00 FF FF FF FF 
   372)      1612.1  Rx         0432  8  2C E2 10 A3 46 FF 02 FF 
   373)      1613.1  Rx         051A  8  00 00 00 00 50 00 00 1A 
   374)      1613.4  Rx         03B4  8  00 00 0C F0 98 FF 00 00 
   375)      1614.1  Rx         0540  8  00 00 00 00 FD 3C FF 40 
   376)      1615.1  Rx         0510  8  40 10 20 00 00 00 00 00 
   377)      1616.2  Rx         0112  8  F7 1F 45 0F 5E 01 65 61 
   378)      1616.4  Rx         01A1  5  7C CB 00 00 8A 
   379)      1627.1  Rx         0112  8  F7 1F 45 0F 5E 01 65 61 
   380)      1638.1  Rx         0112  8  F7 1F 45 0F 5E 01 65 61 
   381)      1638.3  Rx         01A1  5  7C CB 00 00 8A 
   382)      1648.4  Rx         0272  8  19 FB 00 12 FF FF FF FF 
   383)      1649.1  Rx         0112  8  F7 1F 45 0F 5E 01 65 61 
   384)      1660.1  Rx         0112  8  F7 1F 45 0F 5E 01 65 61 
   385)      1660.3  Rx         01A1  5  7C CB 00 00 8A 
   386)      1671.1  Rx         0112  8  F7 1F 45 0F 5E 01 65 61 
   387)      1682.2  Rx         0112  8  F7 1F 45 0F 5E 01 65 61 
   388)      1682.3  Rx         01A1  5  7C CB 00 00 8A 
   389)      1693.2  Rx         0112  8  F7 1F 45 0F 5E 01 65 61 
   390)      1704.2  Rx         0112  8  F7 1F 45 0F 5E 01 65 61 
   391)      1704.3  Rx         01A1  5  7C CB 00 00 8A 
   392)      1707.1  Rx         003C  8  FF 5F 00 00 00 00 FF FF 
   393)      1708.1  Rx         03E9  8  16 00 00 00 00 00 00 00 
   394)      1709.1  Rx         0431  8  CA FF 0B 02 69 26 F3 4B 
   395)      1710.1  Rx         012F  8  F5 28 8A 1D F1 35 30 80 
   396)      1711.1  Rx         02F1  8  B8 11 96 4A 09 F2 06 A0 
   397)      1712.1  Rx         0560  8  00 00 00 00 FE 00 00 60 
   398)      1715.1  Rx         0112  8  F7 1F 45 0F 5E 01 65 61 
   399)      1726.1  Rx         0112  8  F7 1F 45 0F 5E 01 65 61 
   400)      1726.3  Rx         01A1  5  7C CB 00 00 8A 
   401)      1737.1  Rx         0112  8  F7 1F 45 0F 5E 01 65 61 
   402)      1748.1  Rx         0112  8  F7 1F 45 0F 5E 01 65 61 
   403)      1748.3  Rx         01A1  5  7C CB 00 00 8A 
   404)      1759.1  Rx         0112  8  F7 1F 45 0F 5E 01 65 61 
   405)      1770.1  Rx         0112  8  F7 1F 45 0F 5E 01 65 61 
   406)      1770.3  Rx         01A1  5  7C CB 00 00 8A 
   407)      1781.1  Rx         0112  8  F7 1F 45 0F 5E 01 65 61 
   408)      1792.1  Rx         0112  8  F7 1F 45 0F 5E 01 65 61 
   409)      1792.3  Rx         01A1  5  7C CB 00 00 8A 
   410)      1803.1  Rx         0112  8  F7 1F 45 0F 5E 01 65 61 
   411)      1808.1  Rx         003C  8  FF 5F 00 00 00 00 FF FF 
   412)      1809.2  Rx         03E9  8  16 00 00 00 00 00 00 00 
   413)      1810.2  Rx         0431  8  CA FF 0B 02 69 26 F3 4B 
   414)      1811.1  Rx         012F  8  F5 28 8A 1D F1 35 30 80 
   415)      1812.2  Rx         02F1  8  B8 11 96 4A 09 F2 06 A0 
   416)      1813.2  Rx         0560  8  00 00 00 00 FE 00 00 60 
   417)      1813.4  Rx         02FA  8  FD FF 00 00 FF FF FF FF 
   418)      1813.7  Rx         03B4  8  00 00 0C F0 98 FF 00 00 
   419)      1814.2  Rx         0432  8  2C E2 10 A3 46 FF 02 FF 
   420)      1815.1  Rx         051A  8  00 00 00 00 50 00 00 1A 
   421)      1816.2  Rx         0540  8  00 00 00 00 FD 3C FF 40 
   422)      1817.2  Rx         0510  8  40 10 20 00 00 00 00 00 
   423)      1818.1  Rx         0328  6  78 00 00 00 87 1E 
   424)      1819.1  Rx         03E8  2  F1 FF 
   425)      1820.2  Rx         03F9  8  C0 F9 80 E0 43 3C C3 FF 
   426)      1821.2  Rx         02FC  8  81 00 04 FF FF FF FF FF 
   427)      1822.2  Rx         02A0  8  88 88 F8 0F FF FF FF FF 
   428)      1823.2  Rx         03A0  8  FF FF C0 FF FF FF FF FC 
   429)      1823.4  Rx         0112  8  F7 1F 45 0F 5E 01 65 61 
   430)      1823.6  Rx         01A1  5  7C CB 00 00 8A 
   431)      1834.1  Rx         0112  8  F7 1F 45 0F 5E 01 65 61 
   432)      1845.1  Rx         0112  8  F7 1F 45 0F 5E 01 65 61 
   433)      1845.3  Rx         01A1  5  7C CB 00 00 8A 
   434)      1848.8  Rx         0272  8  97 FC 00 12 FF FF FF FF 
   435)      1856.1  Rx         0112  8  F7 1F 45 0F 5E 01 65 61 
   436)      1867.1  Rx         0112  8  F7 1F 45 0F 5E 01 65 61 
   437)      1867.3  Rx         01A1  5  7C CB 00 00 8A 
   438)      1878.1  Rx         0112  8  F7 1F 45 0F 5E 01 65 61 
   439)      1889.1  Rx         0112  8  F7 1F 45 0F 5E 01 65 61 
   440)      1889.3  Rx         01A1  5  7C CB 00 00 8A 
   441)      1900.1  Rx         0112  8  F7 1F 45 0F 5E 01 65 61 
   442)      1909.1  Rx         003C  8  FF 5F 00 00 00 00 FF FF 
   443)      1910.2  Rx         03E9  8  16 00 00 00 00 00 00 00 
   444)      1911.1  Rx         0431  8  CA FF 0B 02 69 26 F3 4B 
   445)      1912.1  Rx         012F  8  F5 28 8A 1D F1 35 30 80 
   446)      1913.1  Rx         02F1  8  B8 11 96 4A 09 F2 06 A0 
   447)      1914.2  Rx         0560  8  00 00 00 00 FE 00 00 60 
   448)      1914.4  Rx         0112  8  F7 1F 45 0F 5E 01 65 61 
   449)      1914.6  Rx         01A1  5  7C CB 00 00 8A 
   450)      1925.1  Rx         0112  8  F7 1F 45 0F 5E 01 65 61 
   451)      1936.1  Rx         0112  8  F7 1F 45 0F 5E 01 65 61 
   452)      1936.3  Rx         01A1  5  7C CB 00 00 8A 
   453)      1947.2  Rx         0112  8  F7 1F 45 0F 5E 01 65 61 
   454)      1958.1  Rx         0112  8  F7 1F 45 0F 5E 01 65 61 
   455)      1958.3  Rx         01A1  5  7C CB 00 00 8A 
   456)      1969.1  Rx         0112  8  F7 1F 45 0F 5E 01 65 61 
   457)      1980.1  Rx         0112  8  F7 1F 45 0F 5E 01 65 61 
   458)      1980.3  Rx         01A1  5  7C CB 00 00 8A 
   459)      1991.1  Rx         0112  8  F7 1F 45 0F 5E 01 65 61 
   460)      2002.1  Rx         0112  8  F7 1F 45 0F 5E 01 65 61 
   461)      2002.3  Rx         01A1  5  7C CB 00 00 8A 
   462)      2010.1  Rx         003C  8  FF 5F 00 00 00 00 FF FF 
   463)      2011.2  Rx         03E9  8  16 00 00 00 00 00 00 00 
   464)      2012.1  Rx         0431  8  CA FF 0B 02 69 26 F3 4B 
   465)      2013.1  Rx         012F  8  F5 28 8A 1D F1 35 30 80 
   466)      2013.9  Rx         0337  2  FF FF 
   467)      2014.1  Rx         02F1  8  B8 11 96 4A 09 F2 06 A0 
   468)      2014.4  Rx         03B4  8  00 00 0C F0 98 FF 00 00 
   469)      2015.1  Rx         0560  8  00 00 00 00 FE 00 00 60 
   470)      2015.4  Rx         02FA  8  FD FF 00 00 FF FF FF FF 
   471)      2016.1  Rx         0432  8  2C E2 10 A3 46 FF 02 FF 
   472)      2017.1  Rx         051A  8  00 00 00 00 50 00 00 1A 
   473)      2018.1  Rx         0540  8  00 00 00 00 FD 3C FF 40 
   474)      2019.1  Rx         0510  8  40 10 20 00 00 00 00 00 
   475)      2020.2  Rx         0112  8  F7 1F 45 0F 5E 01 65 61 
   476)      2031.1  Rx         0112  8  F7 1F 45 0F 5E 01 65 61 
   477)      2031.3  Rx         01A1  5  7C CB 00 00 8A 
   478)      2042.1  Rx         0112  8  F7 1F 45 0F 5E 01 65 61 
   479)      2049.4  Rx         0272  8  CA FD 00 12 FF FF FF FF 
   480)      2053.1  Rx         0112  8  F7 1F 45 0F 5E 01 65 61 
   481)      2053.3  Rx         01A1  5  7C CB 00 00 8A 
   482)      2064.1  Rx         0112  8  F7 1F 45 0F 5E 01 65 61 
   483)      2075.1  Rx         0112  8  F7 1F 45 0F 5E 01 65 61 
   484)      2075.3  Rx         01A1  5  7C CB 00 00 8A 
   485)      2086.1  Rx         0112  8  F7 1F 45 0F 5E 01 65 61 
   486)      2097.1  Rx         0112  8  F7 1F 45 0F 5E 01 65 61 
   487)      2097.3  Rx         01A1  5  7C CB 00 00 8A 
   488)      2108.1  Rx         0112  8  F7 1F 45 0F 5E 01 65 61 
   489)      2111.2  Rx         003C  8  FF 5F 00 00 00 00 FF FF 
   490)      2112.1  Rx         03E9  8  16 00 00 00 00 00 00 00 
   491)      2113.1  Rx         0431  8  CA FF 0B 02 69 26 F3 4B 
   492)      2114.1  Rx         012F  8  F5 28 8A 1D F1 35 30 80 
   493)      2115.1  Rx         02F1  8  B8 11 96 4A 09 F2 06 A0 
   494)      2116.2  Rx         0560  8  00 00 00 00 FE 00 00 60 
   495)      2119.1  Rx         0112  8  F7 1F 45 0F 5E 01 65 61 
   496)      2119.3  Rx         01A1  5  7C CB 00 00 8A 
   497)      2130.1  Rx         0112  8  F7 1F 45 0F 5E 01 65 61 
   498)      2141.1  Rx         0112  8  F7 1F 45 0F 5E 01 65 61 
   499)      2141.3  Rx         01A1  5  7C CB 00 00 8A 
   500)      2152.1  Rx         0112  8  F7 1F 45 0F 5E 01 65 61 
   501)      2163.1  Rx         0112  8  F7 1F 45 0F 5E 01 65 61 
   502)      2163.3  Rx         01A1  5  7C CB 00 00 8A 
   503)      2174.1  Rx         0112  8  F7 1F 45 0F 5E 01 65 61 
   504)      2185.1  Rx         0112  8  F7 1F 45 0F 5E 01 65 61 
   505)      2185.3  Rx         01A1  5  7C CB 00 00 8A 
   506)      2196.1  Rx         0112  8  F7 1F 45 0F 5E 01 65 61 
   507)      2207.1  Rx         0112  8  F7 1F 45 0F 5E 01 65 61 
   508)      2207.3  Rx         01A1  5  7C CB 00 00 8A 
   509)      2212.1  Rx         003C  8  FF 5F 00 00 00 00 FF FF 
   510)      2213.2  Rx         03E9  8  16 00 00 00 00 00 00 00 
   511)      2214.2  Rx         0431  8  CA FF 0B 02 69 26 F3 4B 
   512)      2214.4  Rx         03B4  8  00 00 0C F0 98 FF 00 00 
   513)      2215.1  Rx         012F  8  F5 28 8A 1D F1 35 30 80 
   514)      2216.2  Rx         02F1  8  B8 11 96 4A 09 F2 06 A0 
   515)      2217.2  Rx         0560  8  00 00 00 00 FE 00 00 60 
   516)      2217.4  Rx         02FA  8  FD FF 00 00 FF FF FF FF 
   517)      2218.2  Rx         0432  8  2C E2 10 A3 46 FF 02 FF 
   518)      2219.1  Rx         051A  8  00 00 00 00 50 00 00 1A 
   519)      2220.2  Rx         0540  8  00 00 00 00 FD 3C FF 40 
   520)      2221.2  Rx         0510  8  40 10 20 00 00 00 00 00 
   521)      2222.2  Rx         0112  8  F7 1F 45 0F 5E 01 65 61 
   522)      2233.1  Rx         0112  8  F7 1F 45 0F 5E 01 65 61 
   523)      2233.3  Rx         01A1  5  7C CB 00 00 8A 
   524)      2244.1  Rx         0112  8  F7 1F 45 0F 5E 01 65 61 
   525)      2249.5  Rx         0272  8  2D FE 00 12 FF FF FF FF 
   526)      2255.1  Rx         0112  8  F7 1F 45 0F 5E 01 65 61 
   527)      2255.3  Rx         01A1  5  7C CB 00 00 8A 
   528)      2266.1  Rx         0112  8  F7 1F 45 0F 5E 01 65 61 
   529)      2277.1  Rx         0112  8  F7 1F 45 0F 5E 01 65 61 
   530)      2277.3  Rx         01A1  5  7C CB 00 00 8A 
   531)      2284.4  Rx         03C3  8  87 1C 49 92 24 49 92 24 
   532)      2288.1  Rx         0112  8  F7 1F 45 0F 5E 01 65 61 
   533)      2299.1  Rx         0112  8  F7 1F 45 0F 5E 01 65 61 
   534)      2299.3  Rx         01A1  5  7C CB 00 00 8A 
   535)      2310.1  Rx         0112  8  F7 1F 45 0F 5E 01 65 61 
   536)      2313.1  Rx         003C  8  FF 5F 00 00 00 00 FF FF 
   537)      2314.1  Rx         03E9  8  16 00 00 00 00 00 00 00 
   538)      2315.1  Rx         0431  8  CA FF 0B 02 69 26 F3 4B 
   539)      2316.1  Rx         012F  8  F5 28 8A 1D F1 35 30 80 
   540)      2317.1  Rx         02F1  8  B8 11 96 4A 09 F2 06 A0 
   541)      2318.1  Rx         0560  8  00 00 00 00 FE 00 00 60 
   542)      2321.1  Rx         0112  8  F7 1F 45 0F 5E 01 65 61 
   543)      2321.3  Rx         01A1  5  7C CB 00 00 8A 
   544)      2332.2  Rx         0112  8  F7 1F 45 0F 5E 01 65 61 
   545)      2343.2  Rx         0112  8  F7 1F 45 0F 5E 01 65 61 
   546)      2343.3  Rx         01A1  5  7C CB 00 00 8A 
   547)      2354.2  Rx         0112  8  F7 1F 45 0F 5E 01 65 61 
   548)      2365.2  Rx         0112  8  F7 1F 45 0F 5E 01 65 61 
   549)      2365.4  Rx         01A1  5  7C CB 00 00 8A 
   550)      2376.1  Rx         0112  8  F7 1F 45 0F 5E 01 65 61 
   551)      2387.2  Rx         0112  8  F7 1F 45 0F 5E 01 65 61 
   552)      2387.3  Rx         01A1  5  7C CB 00 00 8A 
   553)      2398.2  Rx         0112  8  F7 1F 45 0F 5E 01 65 61 
   554)      2409.2  Rx         0112  8  F7 1F 45 0F 5E 01 65 61 
   555)      2409.3  Rx         01A1  5  7C CB 00 00 8A 
   556)      2414.2  Rx         003C  8  FF 5F 00 00 00 00 FF FF 
   557)      2414.7  Rx         03B4  8  00 00 0C F0 98 FF 00 00 
   558)      2415.2  Rx         03E9  8  16 00 00 00 00 00 00 00 
   559)      2416.2  Rx         0431  8  CA FF 0B 02 69 26 F3 4B 
   560)      2417.2  Rx         012F  8  F5 28 8A 1D F1 35 30 80 
   561)      2418.2  Rx         02F1  8  B8 11 96 4A 09 F2 06 A0 
   562)      2419.2  Rx         0560  8  00 00 00 00 FE 00 00 60 
   563)      2419.5  Rx         02FA  8  FD FF 00 00 FF FF FF FF 
   564)      2420.2  Rx         0432  8  2C E2 10 A3 46 FF 02 FF 
   565)      2421.2  Rx         051A  8  00 00 00 00 50 00 00 1A 
   566)      2422.2  Rx         0540  8  00 00 00 00 FD 3C FF 40 
   567)      2423.2  Rx         0510  8  40 10 20 00 00 00 00 00 
   568)      2424.2  Rx         0112  8  F7 1F 45 0F 5E 01 65 61 
   569)      2435.1  Rx         0112  8  F7 1F 45 0F 5E 01 65 61 
   570)      2435.3  Rx         01A1  5  7C CB 00 00 8A 
   571)      2446.1  Rx         0112  8  F7 1F 45 0F 5E 01 65 61 
   572)      2449.8  Rx         0272  8  2C F0 00 12 FF FF FF FF 
   573)      2457.2  Rx         0112  8  F7 1F 45 0F 5E 01 65 61 
   574)      2457.3  Rx         01A1  5  7C CB 00 00 8A 
   575)      2468.2  Rx         0112  8  F7 1F 45 0F 5E 01 65 61 
   576)      2479.1  Rx         0112  8  F7 1F 45 0F 5E 01 65 61 
   577)      2479.4  Rx         01A1  5  7C CB 00 00 8A 
   578)      2490.1  Rx         0112  8  F7 1F 45 0F 5E 01 65 61 
   579)      2501.2  Rx         0112  8  F7 1F 45 0F 5E 01 65 61 
   580)      2501.3  Rx         01A1  5  7C CB 00 00 8A 
   581)      2512.2  Rx         0112  8  F7 1F 45 0F 5E 01 65 61 
   582)      2515.2  Rx         003C  8  FF 5F 00 00 00 00 FF FF 
   583)      2516.2  Rx         03E9  8  16 00 00 00 00 00 00 00 
   584)      2517.2  Rx         0431  8  CA FF 0B 02 69 26 F3 4B 
   585)      2518.1  Rx         012F  8  F5 28 8A 1D F1 35 30 80 
   586)      2519.2  Rx         02F1  8  B8 11 96 4A 09 F2 06 A0 
   587)      2520.2  Rx         0560  8  00 00 00 00 FE 00 00 60 
   588)      2523.2  Rx         0112  8  F7 1F 45 0F 5E 01 65 61 
   589)      2523.3  Rx         01A1  5  7C CB 00 00 8A 
   590)      2534.2  Rx         0112  8  F7 1F 45 0F 5E 01 65 61 
   591)      2545.1  Rx         0112  8  F7 1F 45 0F 5E 01 65 61 
   592)      2545.4  Rx         01A1  5  7C CB 00 00 8A 
   593)      2556.2  Rx         0112  8  F7 1F 45 0F 5E 01 65 61 
   594)      2567.2  Rx         0112  8  F7 1F 45 0F 5E 01 65 61 
   595)      2567.3  Rx         01A1  5  7C CB 00 00 8A 
   596)      2578.2  Rx         0112  8  F7 1F 45 0F 5E 01 65 61 
   597)      2589.1  Rx         0112  8  F7 1F 45 0F 5E 01 65 61 
   598)      2589.3  Rx         01A1  5  7C CB 00 00 8A 
   599)      2600.1  Rx         0112  8  F7 1F 45 0F 5E 01 65 61 
   600)      2611.1  Rx         0112  8  F7 1F 45 0F 5E 01 65 61 
   601)      2611.3  Rx         01A1  5  7C CB 00 00 8A 
   602)      2615.0  Rx         03B4  8  00 00 0C F0 98 FF 00 00 
   603)      2616.2  Rx         003C  8  FF 5F 00 00 00 00 FF FF 
   604)      2617.2  Rx         03E9  8  16 00 00 00 00 00 00 00 
   605)      2618.1  Rx         0431  8  CA FF 0B 02 69 26 F3 4B 
   606)      2619.2  Rx         012F  8  F5 28 8A 1D F1 35 30 80 
   607)      2620.2  Rx         02F1  8  B8 11 96 4A 09 F2 06 A0 
   608)      2621.2  Rx         0560  8  00 00 00 00 FE 00 00 60 
   609)      2621.4  Rx         02FA  8  FD FF 00 00 FF FF FF FF 
   610)      2622.2  Rx         0432  8  2C E2 10 A3 46 FF 02 FF 
   611)      2623.2  Rx         051A  8  00 00 00 00 50 00 00 1A 
   612)      2624.2  Rx         0540  8  00 00 00 00 FD 3C FF 40 
   613)      2625.2  Rx         0510  8  40 10 20 00 00 00 00 00 
   614)      2626.2  Rx         0112  8  F7 1F 45 0F 5E 01 65 61 
   615)      2637.2  Rx         0112  8  F7 1F 45 0F 5E 01 65 61 
   616)      2637.3  Rx         01A1  5  7C CB 00 00 8A 
   617)      2648.2  Rx         0112  8  F7 1F 45 0F 5E 01 65 61 
   618)      2650.5  Rx         0272  8  71 F1 00 12 FF FF FF FF 
   619)      2659.1  Rx         0112  8  F7 1F 45 0F 5E 01 65 61 
   620)      2659.3  Rx         01A1  5  7C CB 00 00 8A 
   621)      2670.2  Rx         0112  8  F7 1F 45 0F 5E 01 65 61 
   622)      2681.2  Rx         0112  8  F7 1F 45 0F 5E 01 65 61 
   623)      2681.3  Rx         01A1  5  7C CB 00 00 8A 
   624)      2692.2  Rx         0112  8  F7 1F 45 0F 5E 01 65 61 
   625)      2703.2  Rx         0112  8  F7 1F 45 0F 5E 01 65 61 
   626)      2703.4  Rx         01A1  5  7C CB 00 00 8A 
   627)      2714.1  Rx         0112  8  F7 1F 45 0F 5E 01 65 61 
   628)      2717.2  Rx         003C  8  FF 5F 00 00 00 00 FF FF 
   629)      2718.2  Rx         03E9  8  16 00 00 00 00 00 00 00 
   630)      2719.2  Rx         0431  8  CA FF 0B 02 69 26 F3 4B 
   631)      2720.2  Rx         012F  8  F5 28 8A 1D F1 35 30 80 
   632)      2721.2  Rx         02F1  8  B8 11 96 4A 09 F2 06 A0 
   633)      2722.2  Rx         0560  8  00 00 00 00 FE 00 00 60 
   634)      2725.2  Rx         0112  8  F7 1F 45 0F 5E 01 65 61 
   635)      2725.3  Rx         01A1  5  7C CB 00 00 8A 
   636)      2736.2  Rx         0112  8  F7 1F 45 0F 5E 01 65 61 
   637)      2747.2  Rx         0112  8  F7 1F 45 0F 5E 01 65 61 
   638)      2747.3  Rx         01A1  5  7C CB 00 00 8A 
   639)      2758.1  Rx         0112  8  F7 1F 45 0F 5E 01 65 61 
   640)      2769.2  Rx         0112  8  F7 1F 45 0F 5E 01 65 61 
   641)      2769.4  Rx         01A1  5  7C CB 00 00 8A 
   642)      2780.1  Rx         0112  8  F7 1F 45 0F 5E 01 65 61 
   643)      2791.2  Rx         0112  8  F7 1F 45 0F 5E 01 65 61 
   644)      2791.3  Rx         01A1  5  7C CB 00 00 8A 
   645)      2802.2  Rx         0112  8  F7 1F 45 0F 5E 01 65 61 
   646)      2813.1  Rx         0112  8  F7 1F 45 0F 5E 01 65 61 
   647)      2813.3  Rx         01A1  5  7C CB 00 00 8A 
   648)      2815.3  Rx         03B4  8  00 00 0C F0 98 FF 00 00 
   649)      2818.2  Rx         003C  8  FF 5F 00 00 00 00 FF FF 
   650)      2819.2  Rx         03E9  8  16 00 00 00 00 00 00 00 
   651)      2820.2  Rx         0431  8  CA FF 0B 02 69 26 F3 4B 
   652)      2821.2  Rx         012F  8  F5 28 8A 1D F1 35 30 80 
   653)      2822.2  Rx         02F1  8  B8 11 96 4A 09 F2 06 A0 
   654)      2823.2  Rx         0560  8  00 00 00 00 FE 00 00 60 
   655)      2823.5  Rx         02FA  8  FD FF 00 00 FF FF FF FF 
   656)      2824.2  Rx         0432  8  2C E2 10 A3 46 FF 02 FF 
   657)      2825.2  Rx         051A  8  00 00 00 00 50 00 00 1A 
   658)      2826.2  Rx         0540  8  00 00 00 00 FD 3C FF 40 
   659)      2827.2  Rx         0510  8  40 10 20 00 00 00 00 00 
   660)      2828.1  Rx         0328  6  79 00 00 00 87 1E 
   661)      2829.1  Rx         03E8  2  F1 FF 
   662)      2830.2  Rx         03F9  8  C0 F9 80 E0 43 3C C3 FF 
   663)      2831.2  Rx         0112  8  F7 1F 45 0F 5E 01 65 61 
   664)      2842.2  Rx         0112  8  F7 1F 45 0F 5E 01 65 61 
   665)      2842.4  Rx         01A1  5  7C CB 00 00 8A 
   666)      2850.5  Rx         0272  8  96 F2 00 12 FF FF FF FF 
   667)      2853.2  Rx         0112  8  F7 1F 45 0F 5E 01 65 61 
   668)      2864.2  Rx         0112  8  F7 1F 45 0F 5E 01 65 61 
   669)      2864.3  Rx         01A1  5  7C CB 00 00 8A 
   670)      2875.2  Rx         0112  8  F7 1F 45 0F 5E 01 65 61 
   671)      2886.1  Rx         0112  8  F7 1F 45 0F 5E 01 65 61 
   672)      2886.3  Rx         01A1  5  7C CB 00 00 8A 
   673)      2897.2  Rx         0112  8  F7 1F 45 0F 5E 01 65 61 
   674)      2908.1  Rx         0112  8  F7 1F 45 0F 5E 01 65 61 
   675)      2908.3  Rx         01A1  5  7C CB 00 00 8A 
   676)      2919.2  Rx         0112  8  F7 1F 45 0F 5E 01 65 61 
   677)      2919.4  Rx         003C  8  FF 5F 00 00 00 00 FF FF 
   678)      2920.2  Rx         03E9  8  16 00 00 00 00 00 00 00 
   679)      2921.2  Rx         0431  8  CA FF 0B 02 69 26 F3 4B 
   680)      2922.1  Rx         012F  8  F5 28 8A 1D F1 35 30 80 
   681)      2923.2  Rx         02F1  8  B8 11 96 4A 09 F2 06 A0 
   682)      2924.2  Rx         0560  8  00 00 00 00 FE 00 00 60 
   683)      2930.2  Rx         0112  8  F7 1F 45 0F 5E 01 65 61 
   684)      2930.3  Rx         01A1  5  7C CB 00 00 8A 
   685)      2941.1  Rx         0112  8  F7 1F 45 0F 5E 01 65 61 
   686)      2952.1  Rx         0112  8  F7 1F 45 0F 5E 01 65 61 
   687)      2952.3  Rx         01A1  5  7C CB 00 00 8A 
   688)      2963.1  Rx         0112  8  F7 1F 45 0F 5E 01 65 61 
   689)      2974.1  Rx         0112  8  F7 1F 45 0F 5E 01 65 61 
   690)      2974.3  Rx         01A1  5  7C CB 00 00 8A 
   691)      2985.2  Rx         0112  8  F7 1F 45 0F 5E 01 65 61 
   692)      2996.1  Rx         0112  8  F7 1F 45 0F 5E 01 65 61 
   693)      2996.3  Rx         01A1  5  7C CB 00 00 8A 
   694)      3007.1  Rx         0112  8  F7 1F 45 0F 5E 01 65 61 
   695)      3015.5  Rx         0337  2  FF FF 
   696)      3015.8  Rx         03B4  8  00 00 0C F0 98 FF 00 00 
   697)      3018.1  Rx         0112  8  F7 1F 45 0F 5E 01 65 61 
   698)      3018.3  Rx         01A1  5  7C CB 00 00 8A 
   699)      3020.2  Rx         003C  8  FF 5F 00 00 00 00 FF FF 
   700)      3021.2  Rx         03E9  8  16 00 00 00 00 00 00 00 
   701)      3022.2  Rx         0431  8  CA FF 0B 02 69 26 F3 4B 
   702)      3023.1  Rx         012F  8  F5 28 8A 1D F1 35 30 80 
   703)      3024.2  Rx         02F1  8  B8 11 96 4A 09 F2 06 A0 
   704)      3025.2  Rx         0560  8  00 00 00 00 FE 00 00 60 
   705)      3025.4  Rx         02FA  8  FD FF 00 00 FF FF FF FF 
   706)      3026.2  Rx         0432  8  2C E2 10 A3 46 FF 02 FF 
   707)      3027.2  Rx         051A  8  00 00 00 00 50 00 00 1A 
   708)      3028.2  Rx         0540  8  00 00 00 00 FD 3C FF 40 
   709)      3029.2  Rx         0510  8  40 10 20 00 00 00 00 00 
   710)      3030.2  Rx         0112  8  F7 1F 45 0F 5E 01 65 61 
   711)      3041.1  Rx         0112  8  F7 1F 45 0F 5E 01 65 61 
   712)      3041.3  Rx         01A1  5  7C CB 00 00 8A 
   713)      3050.8  Rx         0272  8  CB F3 00 12 FF FF FF FF 
   714)      3052.1  Rx         0112  8  F7 1F 45 0F 5E 01 65 61 
   715)      3063.2  Rx         0112  8  F7 1F 45 0F 5E 01 65 61 
   716)      3063.3  Rx         01A1  5  7C CB 00 00 8A 
   717)      3074.1  Rx         0112  8  F7 1F 45 0F 5E 01 65 61 
   718)      3085.1  Rx         0112  8  F7 1F 45 0F 5E 01 65 61 
   719)      3085.3  Rx         01A1  5  7C CB 00 00 8A 
   720)      3096.1  Rx         0112  8  F7 1F 45 0F 5E 01 65 61 
   721)      3107.1  Rx         0112  8  F7 1F 45 0F 5E 01 65 61 
   722)      3107.4  Rx         01A1  5  7C CB 00 00 8A 
   723)      3118.1  Rx         0112  8  F7 1F 45 0F 5E 01 65 61 
   724)      3121.2  Rx         003C  8  FF 5F 00 00 00 00 FF FF 
   725)      3122.2  Rx         03E9  8  16 00 00 00 00 00 00 00 
   726)      3123.1  Rx         0431  8  CA FF 0B 02 69 26 F3 4B 
   727)      3124.2  Rx         012F  8  F5 28 8A 1D F1 35 30 80 
   728)      3125.1  Rx         02F1  8  B8 11 96 4A 09 F2 06 A0 
   729)      3126.2  Rx         0560  8  00 00 00 00 FE 00 00 60 
   730)      3129.2  Rx         0112  8  F7 1F 45 0F 5E 01 65 61 
   731)      3129.3  Rx         01A1  5  7C CB 00 00 8A 
   732)      3140.2  Rx         0112  8  F7 1F 45 0F 5E 01 65 61 
   733)      3151.1  Rx         0112  8  F7 1F 45 0F 5E 01 65 61 
   734)      3151.3  Rx         01A1  5  7C CB 00 00 8A 
   735)      3162.1  Rx         0112  8  F7 1F 45 0F 5E 01 65 61 
   736)      3173.1  Rx         0112  8  F7 1F 45 0F 5E 01 65 61 
   737)      3173.3  Rx         01A1  5  7C CB 00 00 8A 
   738)      3184.2  Rx         0112  8  F7 1F 45 0F 5E 01 65 61 
   739)      3195.1  Rx         0112  8  F7 1F 45 0F 5E 01 65 61 
   740)      3195.3  Rx         01A1  5  7C CB 00 00 8A 
   741)      3206.1  Rx         0112  8  F7 1F 45 0F 5E 01 65 61 
   742)      3216.0  Rx         03B4  8  00 00 0C F0 98 FF 00 00 
   743)      3217.1  Rx         0112  8  F7 1F 45 0F 5E 01 65 61 
   744)      3217.3  Rx         01A1  5  7C CB 00 00 8A 
   745)      3222.2  Rx         003C  8  FF 5F 00 00 00 00 FF FF 
   746)      3223.2  Rx         03E9  8  16 00 00 00 00 00 00 00 
   747)      3224.2  Rx         0431  8  CA FF 0B 02 69 26 F3 4B 
   748)      3225.2  Rx         012F  8  F5 28 8A 1D F1 35 30 80 
   749)      3226.2  Rx         02F1  8  B8 11 96 4A 09 F2 06 A0 
   750)      3227.2  Rx         0560  8  00 00 00 00 FE 00 00 60 
   751)      3227.4  Rx         02FA  8  FD FF 00 00 FF FF FF FF 
   752)      3228.2  Rx         0432  8  2C E2 10 A3 46 FF 02 FF 
   753)      3229.2  Rx         051A  8  00 00 00 00 50 00 00 1A 
   754)      3230.2  Rx         0540  8  00 00 00 00 FD 3C FF 40 
   755)      3231.2  Rx         0510  8  40 10 20 00 00 00 00 00 
   756)      3232.2  Rx         0112  8  F7 1F 45 0F 5E 01 65 61 
   757)      3243.2  Rx         0112  8  F7 1F 45 0F 5E 01 65 61 
   758)      3243.3  Rx         01A1  5  7C CB 00 00 8A 
   759)      3246.0  Rx         03C3  8  88 20 49 92 24 00 00 00 
   760)      3251.4  Rx         0272  8  45 F4 00 12 FF FF FF FF 
