;$FILEVERSION=1.1
;$STARTTIME=44728.6828297569
;
;   Start time: 16.6.2022 16.23.16.491.0
;   Generated by PCAN-View v4.3.4.615
;
;   Message Number
;   |         Time Offset (ms)
;   |         |        Type
;   |         |        |        ID (hex)
;   |         |        |        |     Data Length
;   |         |        |        |     |   Data Bytes (hex) ...
;   |         |        |        |     |   |
;---+--   ----+----  --+--  ----+---  +  -+ -- -- -- -- -- -- --
     1)         5.3  Rx         0112  8  FE 1F 82 0F AE 01 65 63 
     2)         5.5  Rx         01A1  5  7C CB 00 00 8A 
     3)        16.3  Rx         0112  8  FE 1F 82 0F AE 01 65 63 
     4)        27.3  Rx         0112  8  FE 1F 82 0F AE 01 65 63 
     5)        27.5  Rx         01A1  5  7C CB 00 00 8A 
     6)        38.3  Rx         0112  8  FE 1F 82 0F AE 01 65 63 
     7)        49.3  Rx         0112  8  FE 1F 82 0F AE 01 65 63 
     8)        49.5  Rx         01A1  5  7C CB 00 00 8A 
     9)        60.3  Rx         0112  8  FE 1F 82 0F AE 01 65 63 
    10)        71.3  Rx         0112  8  FE 1F 82 0F AE 01 65 63 
    11)        71.5  Rx         01A1  5  7C CB 00 00 8A 
    12)        82.3  Rx         0112  8  FE 1F 82 0F AE 01 65 63 
    13)        86.3  Rx         003C  8  FF 5F 00 00 00 00 FF FF 
    14)        87.3  Rx         03E9  8  00 00 00 00 00 00 00 00 
    15)        88.3  Rx         0431  8  CA FF 0B 02 69 26 F3 4B 
    16)        89.3  Rx         012F  8  F5 28 8A 1D F1 35 30 80 
    17)        90.3  Rx         02F1  8  9A 10 7D 60 09 08 07 A0 
    18)        93.3  Rx         0112  8  FE 1F 82 0F AE 01 65 63 
    19)        93.5  Rx         01A1  5  7C CB 00 00 8A 
    20)       104.3  Rx         0112  8  FE 1F 82 0F AE 01 65 63 
    21)       115.3  Rx         0112  8  FE 1F 82 0F AE 01 65 63 
    22)       115.5  Rx         01A1  5  7C CB 00 00 8A 
    23)       126.3  Rx         0112  8  FE 1F 82 0F AE 01 65 63 
    24)       137.3  Rx         0112  8  FE 1F 82 0F AE 01 65 63 
    25)       137.5  Rx         01A1  5  7C CB 00 00 8A 
    26)       139.3  Rx         0337  2  FF FF 
    27)       139.5  Rx         03B4  8  00 00 0C F0 98 FF 00 00 
    28)       148.3  Rx         0112  8  FE 1F 82 0F AE 01 65 63 
    29)       159.3  Rx         0112  8  FE 1F 82 0F AE 01 65 63 
    30)       159.5  Rx         01A1  5  7C CB 00 00 8A 
    31)       170.3  Rx         0112  8  FE 1F 82 0F AE 01 65 63 
    32)       179.4  Rx         0272  8  72 F8 02 12 FF FF FF FF 
    33)       181.3  Rx         0112  8  FE 1F 82 0F AE 01 65 63 
    34)       181.5  Rx         01A1  5  7C CB 00 00 8A 
    35)       187.3  Rx         003C  8  FF 5F 00 00 00 00 FF FF 
    36)       188.3  Rx         03E9  8  00 00 00 00 00 00 00 00 
    37)       189.3  Rx         0431  8  CA FF 0B 02 69 26 F3 4B 
    38)       190.3  Rx         012F  8  F5 28 8A 1D F1 35 30 80 
    39)       191.3  Rx         02F1  8  9A 10 7D 60 09 08 07 A0 
    40)       191.5  Rx         02FA  8  FD FF 00 4C 11 FF FF FF 
    41)       192.3  Rx         0432  8  2C E2 10 A3 56 FF 02 FF 
    42)       193.3  Rx         051A  8  00 00 00 00 50 00 00 1A 
    43)       194.3  Rx         0540  8  00 00 00 00 FD 3C FF 40 
    44)       195.3  Rx         0510  8  40 10 20 00 00 00 00 00 
    45)       196.3  Rx         0112  8  FE 1F 82 0F AE 01 65 63 
    46)       207.3  Rx         0112  8  FE 1F 82 0F AE 01 65 63 
    47)       207.5  Rx         01A1  5  7C CB 00 00 8A 
    48)       218.3  Rx         0112  8  FE 1F 82 0F AE 01 65 63 
    49)       229.3  Rx         0112  8  FE 1F 82 0F AE 01 65 63 
    50)       229.5  Rx         01A1  5  7C CB 00 00 8A 
    51)       240.3  Rx         0112  8  FE 1F 82 0F AE 01 65 63 
    52)       251.3  Rx         0112  8  FE 1F 82 0F AE 01 65 63 
    53)       251.4  Rx         01A1  5  7C CB 00 00 8A 
    54)       262.3  Rx         0112  8  FE 1F 82 0F AE 01 65 63 
    55)       273.3  Rx         0112  8  FE 1F 82 0F AE 01 65 63 
    56)       273.5  Rx         01A1  5  7C CB 00 00 8A 
    57)       284.3  Rx         0112  8  FE 1F 82 0F AE 01 65 63 
    58)       288.3  Rx         003C  8  FF 5F 00 00 00 00 FF FF 
    59)       289.3  Rx         03E9  8  00 00 00 00 00 00 00 00 
    60)       290.3  Rx         0431  8  CA FF 0B 02 69 26 F3 4B 
    61)       291.3  Rx         012F  8  F5 28 8A 1D F1 35 30 80 
    62)       292.3  Rx         02F1  8  9A 10 7D 60 09 08 07 A0 
    63)       295.3  Rx         0112  8  FE 1F 82 0F AE 01 65 63 
    64)       295.5  Rx         01A1  5  7C CB 00 00 8A 
    65)       306.3  Rx         0112  8  FE 1F 82 0F AE 01 65 63 
    66)       317.3  Rx         0112  8  FE 1F 82 0F AE 01 65 63 
    67)       317.5  Rx         01A1  5  7C CB 00 00 8A 
    68)       328.3  Rx         0112  8  FE 1F 82 0F AE 01 65 63 
    69)       339.3  Rx         0112  8  FE 1F 82 0F AE 01 65 63 
    70)       339.5  Rx         01A1  5  7C CB 00 00 8A 
    71)       339.7  Rx         03B4  8  00 00 0C F0 98 FF 00 00 
    72)       350.3  Rx         0112  8  FE 1F 82 0F AE 01 65 63 
    73)       361.3  Rx         0112  8  FE 1F 82 0F AE 01 65 63 
    74)       361.5  Rx         01A1  5  7C CB 00 00 8A 
    75)       372.3  Rx         0112  8  FE 1F 82 0F AE 01 65 63 
    76)       379.6  Rx         0272  8  2F F9 02 12 FF FF FF FF 
    77)       383.4  Rx         0112  8  FE 1F 82 0F AE 01 65 63 
    78)       383.5  Rx         01A1  5  7C CB 00 00 8A 
    79)       389.4  Rx         003C  8  FF 5F 00 00 00 00 FF FF 
    80)       390.4  Rx         03E9  8  00 00 00 00 00 00 00 00 
    81)       391.3  Rx         0431  8  CA FF 0B 02 69 26 F3 4B 
    82)       392.3  Rx         012F  8  F5 28 8A 1D F1 35 30 80 
    83)       393.3  Rx         02F1  8  9A 10 7D 60 09 08 07 A0 
    84)       393.6  Rx         02FA  8  FD FF 00 4C 11 FF FF FF 
    85)       394.3  Rx         0432  8  2C E2 10 A3 56 FF 02 FF 
    86)       395.3  Rx         051A  8  00 00 00 00 50 00 00 1A 
    87)       396.4  Rx         0540  8  00 00 00 00 FD 3C FF 40 
    88)       397.4  Rx         0510  8  40 10 20 00 00 00 00 00 
    89)       398.4  Rx         0112  8  FE 1F 82 0F AE 01 65 63 
    90)       409.3  Rx         0112  8  FE 1F 82 0F AE 01 65 63 
    91)       409.5  Rx         01A1  5  7C CB 00 00 8A 
    92)       420.4  Rx         0112  8  FE 1F 82 0F AE 01 65 63 
    93)       431.4  Rx         0112  8  FE 1F 82 0F AE 01 65 63 
    94)       431.5  Rx         01A1  5  7C CB 00 00 8A 
    95)       442.4  Rx         0112  8  FE 1F 82 0F AE 01 65 63 
    96)       453.3  Rx         0112  8  FE 1F 82 0F AE 01 65 63 
    97)       453.5  Rx         01A1  5  7C CB 00 00 8A 
    98)       464.3  Rx         0112  8  FE 1F 82 0F AE 01 65 63 
    99)       475.3  Rx         0112  8  FE 1F 82 0F AE 01 65 63 
   100)       475.5  Rx         01A1  5  7C CB 00 00 8A 
   101)       486.4  Rx         0112  8  FE 1F 82 0F AE 01 65 63 
   102)       490.4  Rx         003C  8  FF 5F 00 00 00 00 FF FF 
   103)       491.3  Rx         03E9  8  00 00 00 00 00 00 00 00 
   104)       492.3  Rx         0431  8  CA FF 0B 02 69 26 F3 4B 
   105)       493.4  Rx         012F  8  F5 28 8A 1D F1 35 30 80 
   106)       494.3  Rx         02F1  8  9A 10 7D 60 09 08 07 A0 
   107)       497.4  Rx         0112  8  FE 1F 82 0F AE 01 65 63 
   108)       497.5  Rx         01A1  5  7C CB 00 00 8A 
   109)       508.4  Rx         0112  8  FE 1F 82 0F AE 01 65 63 
   110)       519.3  Rx         0112  8  FE 1F 82 0F AE 01 65 63 
   111)       519.5  Rx         01A1  5  7C CB 00 00 8A 
   112)       530.3  Rx         0112  8  FE 1F 82 0F AE 01 65 63 
   113)       539.8  Rx         03B4  8  00 00 0C F0 98 FF 00 00 
   114)       541.4  Rx         0112  8  FE 1F 82 0F AE 01 65 63 
   115)       541.5  Rx         01A1  5  7C CB 00 00 8A 
   116)       552.3  Rx         0112  8  FE 1F 82 0F AE 01 65 63 
   117)       563.3  Rx         0112  8  FE 1F 82 0F AE 01 65 63 
   118)       563.5  Rx         01A1  5  7C CB 00 00 8A 
   119)       574.3  Rx         0112  8  FE 1F 82 0F AE 01 65 63 
   120)       579.8  Rx         0272  8  C8 FA 02 12 FF FF FF FF 
   121)       585.3  Rx         0112  8  FE 1F 82 0F AE 01 65 63 
   122)       585.5  Rx         01A1  5  7C CB 00 00 8A 
   123)       591.4  Rx         003C  8  FF 5F 00 00 00 00 FF FF 
   124)       592.3  Rx         03E9  8  00 00 00 00 00 00 00 00 
   125)       593.3  Rx         0431  8  CA FF 0B 02 69 26 F3 4B 
   126)       594.3  Rx         012F  8  F5 28 8A 1D F1 35 30 80 
   127)       595.3  Rx         02F1  8  9A 10 7D 60 09 08 07 A0 
   128)       595.6  Rx         02FA  8  FD FF 00 4C 11 FF FF FF 
   129)       596.3  Rx         0432  8  2C E2 10 A3 56 FF 02 FF 
   130)       597.4  Rx         051A  8  00 00 00 00 50 00 00 1A 
   131)       598.4  Rx         0540  8  00 00 00 00 FD 3C FF 40 
   132)       599.4  Rx         0510  8  40 10 20 00 00 00 00 00 
   133)       600.3  Rx         0328  6  DC 00 00 00 87 1E 
   134)       601.3  Rx         03E8  6  F1 FF 00 00 87 1E 
   135)       602.4  Rx         03F9  8  C0 F9 80 E0 43 3C C3 FF 
   136)       603.4  Rx         02FC  8  81 00 04 FF FF FF FF FF 
   137)       604.4  Rx         02A0  8  88 88 F8 0F FF FF FF FF 
   138)       605.4  Rx         03A0  8  FF FF C0 FF FF FF FF FC 
   139)       605.6  Rx         0112  8  FE 1F 82 0F AE 01 65 63 
   140)       616.4  Rx         0112  8  FE 1F 82 0F AE 01 65 63 
   141)       616.5  Rx         01A1  5  7C CB 00 00 8A 
   142)       627.3  Rx         0112  8  FE 1F 82 0F AE 01 65 63 
   143)       638.3  Rx         0112  8  FE 1F 82 0F AE 01 65 63 
   144)       638.5  Rx         01A1  5  7C CB 00 00 8A 
   145)       649.3  Rx         0112  8  FE 1F 82 0F AE 01 65 63 
   146)       660.3  Rx         0112  8  FE 1F 82 0F AE 01 65 63 
   147)       660.5  Rx         01A1  5  7C CB 00 00 8A 
   148)       671.4  Rx         0112  8  FE 1F 82 0F AE 01 65 63 
   149)       682.3  Rx         0112  8  FE 1F 82 0F AE 01 65 63 
   150)       682.5  Rx         01A1  5  7C CB 00 00 8A 
   151)       692.3  Rx         003C  8  FF 5F 00 00 00 00 FF FF 
   152)       693.3  Rx         03E9  8  00 00 00 00 00 00 00 00 
   153)       694.3  Rx         0431  8  CA FF 0B 02 69 26 F3 4B 
   154)       695.3  Rx         012F  8  F5 28 8A 1D F1 35 30 80 
   155)       696.3  Rx         02F1  8  9A 10 7D 60 09 08 07 A0 
   156)       696.5  Rx         0112  8  FE 1F 82 0F AE 01 65 63 
   157)       707.3  Rx         0112  8  FE 1F 82 0F AE 01 65 63 
   158)       707.5  Rx         01A1  5  7C CB 00 00 8A 
   159)       718.3  Rx         0112  8  FE 1F 82 0F AE 01 65 63 
   160)       729.3  Rx         0112  8  FE 1F 82 0F AE 01 65 63 
   161)       729.5  Rx         01A1  5  7C CB 00 00 8A 
   162)       740.0  Rx         03B4  8  00 00 0C F0 98 FF 00 00 
   163)       740.3  Rx         0112  8  FE 1F 82 0F AE 01 65 63 
   164)       751.4  Rx         0112  8  FE 1F 82 0F AE 01 65 63 
   165)       751.5  Rx         01A1  5  7C CB 00 00 8A 
   166)       762.4  Rx         0112  8  FE 1F 82 0F AE 01 65 63 
   167)       773.3  Rx         0112  8  FE 1F 82 0F AE 01 65 63 
   168)       773.5  Rx         01A1  5  7C CB 00 00 8A 
   169)       780.0  Rx         0272  8  95 FB 02 12 FF FF FF FF 
   170)       784.3  Rx         0112  8  FE 1F 82 0F AE 01 65 63 
   171)       793.3  Rx         003C  8  FF 5F 00 00 00 00 FF FF 
   172)       794.4  Rx         03E9  8  00 00 00 00 00 00 00 00 
   173)       795.3  Rx         0431  8  CA FF 0B 02 69 26 F3 4B 
   174)       796.3  Rx         012F  8  F5 28 8A 1D F1 35 30 80 
   175)       797.3  Rx         02F1  8  9A 10 7D 60 09 08 07 A0 
   176)       797.6  Rx         02FA  8  FD FF 00 4C 11 FF FF FF 
   177)       798.3  Rx         0432  8  2C E2 10 A3 56 FF 02 FF 
   178)       799.4  Rx         051A  8  00 00 00 00 50 00 00 1A 
   179)       800.3  Rx         0540  8  00 00 00 00 FD 3C FF 40 
   180)       801.4  Rx         0510  8  40 10 20 00 00 00 00 00 
   181)       802.4  Rx         0112  8  FE 1F 82 0F AE 01 65 63 
   182)       802.6  Rx         01A1  5  7C CB 00 00 8A 
   183)       810.1  Rx         03C3  8  74 1C 08 02 00 00 00 00 
   184)       813.3  Rx         0112  8  FE 1F 82 0F AE 01 65 63 
   185)       824.4  Rx         0112  8  FE 1F 82 0F AE 01 65 63 
   186)       824.5  Rx         01A1  5  7C CB 00 00 8A 
   187)       835.3  Rx         0112  8  FE 1F 82 0F AE 01 65 63 
   188)       846.3  Rx         0112  8  FE 1F 82 0F AE 01 65 63 
   189)       846.5  Rx         01A1  5  7C CB 00 00 8A 
   190)       857.3  Rx         0112  8  FE 1F 82 0F AE 01 65 63 
   191)       868.3  Rx         0112  8  FE 1F 82 0F AE 01 65 63 
   192)       868.5  Rx         01A1  5  7C CB 00 00 8A 
   193)       879.3  Rx         0112  8  FE 1F 82 0F AE 01 65 63 
   194)       890.4  Rx         0112  8  FE 1F 82 0F AE 01 65 63 
   195)       890.5  Rx         01A1  5  7C CB 00 00 8A 
   196)       894.3  Rx         003C  8  FF 5F 00 00 00 00 FF FF 
   197)       895.3  Rx         03E9  8  00 00 00 00 00 00 00 00 
   198)       896.3  Rx         0431  8  CA FF 0B 02 69 26 F3 4B 
   199)       897.3  Rx         012F  8  F5 28 8A 1D F1 35 30 80 
   200)       898.3  Rx         02F1  8  9A 10 7D 60 09 08 07 A0 
   201)       901.3  Rx         0112  8  FE 1F 82 0F AE 01 65 63 
   202)       912.3  Rx         0112  8  FE 1F 82 0F AE 01 65 63 
   203)       912.5  Rx         01A1  5  7C CB 00 00 8A 
   204)       923.3  Rx         0112  8  FE 1F 82 0F AE 01 65 63 
   205)       934.3  Rx         0112  8  FE 1F 82 0F AE 01 65 63 
   206)       934.5  Rx         01A1  5  7C CB 00 00 8A 
   207)       940.2  Rx         03B4  8  00 00 0C F0 98 FF 00 00 
   208)       945.4  Rx         0112  8  FE 1F 82 0F AE 01 65 63 
   209)       956.3  Rx         0112  8  FE 1F 82 0F AE 01 65 63 
   210)       956.5  Rx         01A1  5  7C CB 00 00 8A 
   211)       967.3  Rx         0112  8  FE 1F 82 0F AE 01 65 63 
   212)       978.3  Rx         0112  8  FE 1F 82 0F AE 01 65 63 
   213)       978.5  Rx         01A1  5  7C CB 00 00 8A 
   214)       980.2  Rx         0272  8  1B FC 02 12 FF FF FF FF 
   215)       989.3  Rx         0112  8  FE 1F 82 0F AE 01 65 63 
   216)       995.3  Rx         003C  8  FF 5F 00 00 00 00 FF FF 
   217)       996.3  Rx         03E9  8  00 00 00 00 00 00 00 00 
   218)       997.3  Rx         0431  8  CA FF 0B 02 69 26 F3 4B 
   219)       998.3  Rx         012F  8  F5 28 8A 1D F1 35 30 80 
   220)       999.3  Rx         02F1  8  9A 10 7D 60 09 08 07 A0 
   221)       999.6  Rx         02FA  8  FD FF 00 4C 11 FF FF FF 
   222)      1000.3  Rx         0432  8  2C E2 10 A3 56 FF 02 FF 
   223)      1001.3  Rx         051A  8  00 00 00 00 50 00 00 1A 
   224)      1002.4  Rx         0540  8  00 00 00 00 FD 3C FF 40 
   225)      1003.3  Rx         0510  8  40 10 20 00 00 00 00 00 
   226)      1004.4  Rx         0112  8  FE 1F 82 0F AE 01 65 63 
   227)      1004.5  Rx         01A1  5  7C CB 00 00 8A 
   228)      1015.3  Rx         0112  8  FE 1F 82 0F AE 01 65 63 
   229)      1026.3  Rx         0112  8  FE 1F 82 0F AE 01 65 63 
   230)      1026.5  Rx         01A1  5  7C CB 00 00 8A 
   231)      1037.3  Rx         0112  8  FE 1F 82 0F AE 01 65 63 
   232)      1048.3  Rx         0112  8  FE 1F 82 0F AE 01 65 63 
   233)      1048.5  Rx         01A1  5  7C CB 00 00 8A 
   234)      1059.4  Rx         0112  8  FE 1F 82 0F AE 01 65 63 
   235)      1070.3  Rx         0112  8  FE 1F 82 0F AE 01 65 63 
   236)      1070.5  Rx         01A1  5  7C CB 00 00 8A 
   237)      1081.3  Rx         0112  8  FE 1F 82 0F AE 01 65 63 
   238)      1092.3  Rx         0112  8  FE 1F 82 0F AE 01 65 63 
   239)      1092.5  Rx         01A1  5  7C CB 00 00 8A 
   240)      1096.3  Rx         003C  8  FF 5F 00 00 00 00 FF FF 
   241)      1097.3  Rx         03E9  8  00 00 00 00 00 00 00 00 
   242)      1098.3  Rx         0431  8  CA FF 0B 02 69 26 F3 4B 
   243)      1099.3  Rx         012F  8  F5 28 8A 1D F1 35 30 80 
   244)      1100.3  Rx         02F1  8  9A 10 7D 60 09 08 07 A0 
   245)      1103.3  Rx         0112  8  FE 1F 82 0F AE 01 65 63 
   246)      1114.3  Rx         0112  8  FE 1F 82 0F AE 01 65 63 
   247)      1114.5  Rx         01A1  5  7C CB 00 00 8A 
   248)      1125.3  Rx         0112  8  FE 1F 82 0F AE 01 65 63 
   249)      1136.3  Rx         0112  8  FE 1F 82 0F AE 01 65 63 
   250)      1136.5  Rx         01A1  5  7C CB 00 00 8A 
   251)      1140.3  Rx         0337  2  FF FF 
   252)      1140.6  Rx         03B4  8  00 00 0C F0 98 FF 00 00 
   253)      1147.3  Rx         0112  8  FE 1F 82 0F AE 01 65 63 
   254)      1158.3  Rx         0112  8  FE 1F 82 0F AE 01 65 63 
   255)      1158.5  Rx         01A1  5  7C CB 00 00 8A 
   256)      1169.3  Rx         0112  8  FE 1F 82 0F AE 01 65 63 
   257)      1180.3  Rx         0112  8  FE 1F 82 0F AE 01 65 63 
   258)      1180.5  Rx         01A1  5  7C CB 00 00 8A 
   259)      1180.7  Rx         0272  8  46 FD 02 12 FF FF FF FF 
   260)      1191.3  Rx         0112  8  FE 1F 82 0F AE 01 65 63 
   261)      1197.3  Rx         003C  8  FF 5F 00 00 00 00 FF FF 
   262)      1198.4  Rx         03E9  8  00 00 00 00 00 00 00 00 
   263)      1199.3  Rx         0431  8  CA FF 0B 02 69 26 F3 4B 
   264)      1200.3  Rx         012F  8  F5 28 8A 1D F1 35 30 80 
   265)      1201.4  Rx         02F1  8  9A 10 7D 60 09 08 07 A0 
   266)      1201.6  Rx         02FA  8  FD FF 00 4C 11 FF FF FF 
   267)      1202.3  Rx         0432  8  2C E2 10 A3 56 FF 02 FF 
   268)      1203.4  Rx         051A  8  00 00 00 00 50 00 00 1A 
   269)      1204.3  Rx         0540  8  00 00 00 00 FD 3C FF 40 
   270)      1205.4  Rx         0510  8  40 10 20 00 00 00 00 00 
   271)      1206.4  Rx         0112  8  FE 1F 82 0F AE 01 65 63 
   272)      1206.6  Rx         01A1  5  7C CB 00 00 8A 
   273)      1217.4  Rx         0112  8  FE 1F 82 0F AE 01 65 63 
   274)      1228.3  Rx         0112  8  FE 1F 82 0F AE 01 65 63 
   275)      1228.5  Rx         01A1  5  7C CB 00 00 8A 
   276)      1239.3  Rx         0112  8  FE 1F 82 0F AE 01 65 63 
   277)      1250.3  Rx         0112  8  FE 1F 82 0F AE 01 65 63 
   278)      1250.5  Rx         01A1  5  7C CB 00 00 8A 
   279)      1261.3  Rx         0112  8  FE 1F 82 0F AE 01 65 63 
   280)      1272.3  Rx         0112  8  FE 1F 82 0F AE 01 65 63 
   281)      1272.5  Rx         01A1  5  7C CB 00 00 8A 
   282)      1283.4  Rx         0112  8  FE 1F 82 0F AE 01 65 63 
   283)      1294.3  Rx         0112  8  FE 1F 82 0F AE 01 65 63 
   284)      1294.5  Rx         01A1  5  7C CB 00 00 8A 
   285)      1298.3  Rx         003C  8  FF 5F 00 00 00 00 FF FF 
   286)      1299.4  Rx         03E9  8  00 00 00 00 00 00 00 00 
   287)      1300.3  Rx         0431  8  CA FF 0B 02 69 26 F3 4B 
   288)      1301.3  Rx         012F  8  F5 28 8A 1D F1 35 30 80 
   289)      1302.3  Rx         02F1  8  9A 10 7D 60 09 08 07 A0 
   290)      1305.3  Rx         0112  8  FE 1F 82 0F AE 01 65 63 
   291)      1316.3  Rx         0112  8  FE 1F 82 0F AE 01 65 63 
   292)      1316.5  Rx         01A1  5  7C CB 00 00 8A 
   293)      1327.3  Rx         0112  8  FE 1F 82 0F AE 01 65 63 
   294)      1338.3  Rx         0112  8  FE 1F 82 0F AE 01 65 63 
   295)      1338.5  Rx         01A1  5  7C CB 00 00 8A 
   296)      1340.6  Rx         03B4  8  00 00 0C F0 98 FF 00 00 
   297)      1349.3  Rx         0112  8  FE 1F 82 0F AE 01 65 63 
   298)      1360.3  Rx         0112  8  FE 1F 82 0F AE 01 65 63 
   299)      1360.5  Rx         01A1  5  7C CB 00 00 8A 
   300)      1371.3  Rx         0112  8  FE 1F 82 0F AE 01 65 63 
   301)      1380.6  Rx         0272  8  A1 FE 02 12 FF FF FF FF 
   302)      1382.4  Rx         0112  8  FE 1F 82 0F AE 01 65 63 
   303)      1382.5  Rx         01A1  5  7C CB 00 00 8A 
   304)      1393.3  Rx         0112  8  FE 1F 82 0F AE 01 65 63 
   305)      1399.4  Rx         003C  8  FF 5F 00 00 00 00 FF FF 
   306)      1400.4  Rx         03E9  8  00 00 00 00 00 00 00 00 
   307)      1401.4  Rx         0431  8  CA FF 0B 02 69 26 F3 4B 
   308)      1402.3  Rx         012F  8  F5 28 8A 1D F1 35 30 80 
   309)      1403.4  Rx         02F1  8  9A 10 7D 60 09 08 07 A0 
   310)      1403.6  Rx         02FA  8  FD FF 00 4C 11 FF FF FF 
   311)      1404.4  Rx         0432  8  2C E2 10 A3 56 FF 02 FF 
   312)      1405.4  Rx         051A  8  00 00 00 00 50 00 00 1A 
   313)      1406.4  Rx         0540  8  00 00 00 00 FD 3C FF 40 
   314)      1407.4  Rx         0510  8  40 10 20 00 00 00 00 00 
   315)      1408.4  Rx         0112  8  FE 1F 82 0F AE 01 65 63 
   316)      1408.6  Rx         01A1  5  7C CB 00 00 8A 
   317)      1419.3  Rx         0112  8  FE 1F 82 0F AE 01 65 63 
   318)      1430.4  Rx         0112  8  FE 1F 82 0F AE 01 65 63 
   319)      1430.5  Rx         01A1  5  7C CB 00 00 8A 
   320)      1441.3  Rx         0112  8  FE 1F 82 0F AE 01 65 63 
   321)      1452.4  Rx         0112  8  FE 1F 82 0F AE 01 65 63 
   322)      1452.6  Rx         01A1  5  7C CB 00 00 8A 
   323)      1463.4  Rx         0112  8  FE 1F 82 0F AE 01 65 63 
   324)      1474.3  Rx         0112  8  FE 1F 82 0F AE 01 65 63 
   325)      1474.5  Rx         01A1  5  7C CB 00 00 8A 
   326)      1485.3  Rx         0112  8  FE 1F 82 0F AE 01 65 63 
   327)      1496.3  Rx         0112  8  FE 1F 82 0F AE 01 65 63 
   328)      1496.5  Rx         01A1  5  7C CB 00 00 8A 
   329)      1500.4  Rx         003C  8  FF 5F 00 00 00 00 FF FF 
   330)      1501.4  Rx         03E9  8  00 00 00 00 00 00 00 00 
   331)      1502.3  Rx         0431  8  CA FF 0B 02 69 26 F3 4B 
   332)      1503.3  Rx         012F  8  F5 28 8A 1D F1 35 30 80 
   333)      1504.4  Rx         02F1  8  9A 10 7D 60 09 08 07 A0 
   334)      1507.3  Rx         0112  8  FE 1F 82 0F AE 01 65 63 
   335)      1518.3  Rx         0112  8  FE 1F 82 0F AE 01 65 63 
   336)      1518.5  Rx         01A1  5  7C CB 00 00 8A 
   337)      1529.4  Rx         0112  8  FE 1F 82 0F AE 01 65 63 
   338)      1540.3  Rx         0112  8  FE 1F 82 0F AE 01 65 63 
   339)      1540.5  Rx         01A1  5  7C CB 00 00 8A 
   340)      1540.9  Rx         03B4  8  00 00 0C F0 98 FF 00 00 
   341)      1551.3  Rx         0112  8  FE 1F 82 0F AE 01 65 63 
   342)      1562.3  Rx         0112  8  FE 1F 82 0F AE 01 65 63 
   343)      1562.5  Rx         01A1  5  7C CB 00 00 8A 
   344)      1573.3  Rx         0112  8  FE 1F 82 0F AE 01 65 63 
   345)      1580.8  Rx         0272  8  A0 F0 02 12 FF FF FF FF 
   346)      1584.4  Rx         0112  8  FE 1F 82 0F AE 01 65 63 
   347)      1584.6  Rx         01A1  5  7C CB 00 00 8A 
   348)      1595.4  Rx         0112  8  FE 1F 82 0F AE 01 65 63 
   349)      1601.4  Rx         003C  8  FF 5F 00 00 00 00 FF FF 
   350)      1602.4  Rx         03E9  8  00 00 00 00 00 00 00 00 
   351)      1603.4  Rx         0431  8  CA FF 0B 02 69 26 F3 4B 
   352)      1604.4  Rx         012F  8  F5 28 8A 1D F1 35 30 80 
   353)      1605.4  Rx         02F1  8  9A 10 7D 60 09 08 07 A0 
   354)      1605.6  Rx         02FA  8  FD FF 00 4C 11 FF FF FF 
   355)      1606.4  Rx         0432  8  2C E2 10 A3 56 FF 02 FF 
   356)      1607.4  Rx         051A  8  00 00 00 00 50 00 00 1A 
   357)      1608.4  Rx         0540  8  00 00 00 00 FD 3C FF 40 
   358)      1609.4  Rx         0510  8  40 10 20 00 00 00 00 00 
   359)      1610.3  Rx         0328  6  DD 00 00 00 87 1E 
   360)      1611.4  Rx         03E8  6  F1 FF 00 00 87 1E 
   361)      1612.4  Rx         03F9  8  C0 F9 80 E0 43 3C C3 FF 
   362)      1613.4  Rx         0112  8  FE 1F 82 0F AE 01 65 63 
   363)      1613.6  Rx         01A1  5  7C CB 00 00 8A 
   364)      1624.4  Rx         0112  8  FE 1F 82 0F AE 01 65 63 
   365)      1635.4  Rx         0112  8  FE 1F 82 0F AE 01 65 63 
   366)      1635.6  Rx         01A1  5  7C CB 00 00 8A 
   367)      1646.3  Rx         0112  8  FE 1F 82 0F AE 01 65 63 
   368)      1657.4  Rx         0112  8  FE 1F 82 0F AE 01 65 63 
   369)      1657.5  Rx         01A1  5  7C CB 00 00 8A 
   370)      1668.4  Rx         0112  8  FE 1F 82 0F AE 01 65 63 
   371)      1679.4  Rx         0112  8  FE 1F 82 0F AE 01 65 63 
   372)      1679.5  Rx         01A1  5  7C CB 00 00 8A 
   373)      1690.3  Rx         0112  8  FE 1F 82 0F AE 01 65 63 
   374)      1701.4  Rx         0112  8  FE 1F 82 0F AE 01 65 63 
   375)      1701.6  Rx         01A1  5  7C CB 00 00 8A 
   376)      1702.4  Rx         003C  8  FF 5F 00 00 00 00 FF FF 
   377)      1703.4  Rx         03E9  8  00 00 00 00 00 00 00 00 
   378)      1704.4  Rx         0431  8  CA FF 0B 02 69 26 F3 4B 
   379)      1705.4  Rx         012F  8  F5 28 8A 1D F1 35 30 80 
   380)      1706.4  Rx         02F1  8  9A 10 7D 60 09 08 07 A0 
   381)      1712.3  Rx         0112  8  FE 1F 82 0F AE 01 65 63 
   382)      1723.4  Rx         0112  8  FE 1F 82 0F AE 01 65 63 
   383)      1723.5  Rx         01A1  5  7C CB 00 00 8A 
