Time Stamp,ID,Extended,Dir,Bus,LEN,D1,D2,D3,D4,D5,D6,D7,D8
102121424,000003B4,false,Rx,0,8,00,00,0C,F0,B8,FF,00,00,
102122407,00000112,false,Rx,0,8,FE,1F,C5,0B,20,03,65,4B,
102133408,00000112,false,Rx,0,8,FE,1F,C5,0B,20,03,65,4B,
102133574,000001A1,false,Rx,0,5,7C,CB,00,00,8A,00,00,00,
102144407,00000112,false,Rx,0,8,FE,1F,C5,0B,20,03,65,4B,
30666,00000351,false,Tx,1,8,00,00,00,01,00,00,00,00,
30945,00000356,false,Tx,1,8,B8,75,00,00,00,00,00,00,
31143,00000355,false,Tx,1,8,50,00,00,00,00,00,00,00,
102155395,00000112,false,Rx,0,8,FE,1F,C5,0B,20,03,65,4B,
102155570,000001A1,false,Rx,0,5,7C,CB,00,00,8A,00,00,00,
102156572,00000272,false,Rx,0,8,FA,F2,70,12,FF,FF,FF,FF,
102158426,0000003C,false,Rx,0,8,FF,5F,00,00,00,00,FF,FF,
102159425,000003E9,false,Rx,0,8,08,52,00,00,00,00,00,00,
102160402,00000431,false,Rx,0,8,CA,FF,0B,02,69,26,F3,4B,
102161409,0000012F,false,Rx,0,8,F5,28,88,1D,F1,35,30,80,
102162415,000002F1,false,Rx,0,8,A2,0F,00,18,1B,FB,06,A0,
102163425,00000560,false,Rx,0,8,00,00,00,00,FE,00,00,60,
102166387,00000112,false,Rx,0,8,FE,1F,C5,0B,20,03,65,4B,
102177383,00000112,false,Rx,0,8,FE,1F,C5,0B,20,03,65,4B,
102177549,000001A1,false,Rx,0,5,7C,CB,00,00,8A,00,00,00,
102188424,00000112,false,Rx,0,8,FE,1F,C5,0B,20,03,65,4B,
102199422,00000112,false,Rx,0,8,FE,1F,C5,0B,20,03,65,4B,
102199588,000001A1,false,Rx,0,5,7C,CB,00,00,8A,00,00,00,
102210422,00000112,false,Rx,0,8,FE,1F,C5,0B,20,03,65,4B,
102221419,00000112,false,Rx,0,8,FE,1F,C5,0B,20,03,65,4B,
102221584,000001A1,false,Rx,0,5,7C,CB,00,00,8A,00,00,00,
102232420,00000112,false,Rx,0,8,FE,1F,C5,0B,20,03,65,4B,
102243408,00000112,false,Rx,0,8,FE,1F,C5,0B,20,03,65,4B,
102243584,000001A1,false,Rx,0,5,7C,CB,00,00,8A,00,00,00,
102254407,00000112,false,Rx,0,8,FE,1F,C5,0B,20,03,65,4B,
102259440,0000003C,false,Rx,0,8,FF,5F,00,00,00,00,FF,FF,
102260433,000003E9,false,Rx,0,8,08,52,00,00,00,00,00,00,
102261421,00000431,false,Rx,0,8,CA,FF,0B,02,69,26,F3,4B,
102262418,0000012F,false,Rx,0,8,F5,28,88,1D,F1,35,30,80,
102263426,000002F1,false,Rx,0,8,A2,0F,00,18,1B,FB,06,A0,
102264442,00000560,false,Rx,0,8,00,00,00,00,FE,00,00,60,
102264697,000002FA,false,Rx,0,8,84,04,00,FF,FF,FF,FF,FF,
102265431,00000432,false,Rx,0,8,2C,E2,10,A3,A0,FF,02,FF,
102266440,0000051A,false,Rx,0,8,00,00,00,00,50,00,00,1A,
102267438,00000540,false,Rx,0,8,00,00,00,00,FD,3C,FF,40,
102268444,00000510,false,Rx,0,8,40,10,20,00,00,00,00,00,
102269463,00000112,false,Rx,0,8,FE,1F,C5,0B,20,03,65,4B,
102269631,000001A1,false,Rx,0,5,7C,CB,00,00,8A,00,00,00,
102280414,00000112,false,Rx,0,8,FE,1F,C5,0B,20,03,65,4B,
102291410,00000112,false,Rx,0,8,FE,1F,C5,0B,20,03,65,4B,
102291577,000001A1,false,Rx,0,5,7C,CB,00,00,8A,00,00,00,
102302411,00000112,false,Rx,0,8,FE,1F,C5,0B,20,03,65,4B,
102313396,00000112,false,Rx,0,8,FE,1F,C5,0B,20,03,65,4B,
102313572,000001A1,false,Rx,0,5,7C,CB,00,00,8A,00,00,00,
102321634,00000337,false,Rx,0,2,FF,FF,00,00,00,00,00,00,
102321908,000003B4,false,Rx,0,8,00,00,0C,F0,B8,FF,00,00,
102324416,00000112,false,Rx,0,8,FE,1F,C5,0B,20,03,65,4B,
214409,00000112,false,Rx,0,8,FE,1F,C5,0B,20,03,65,4B,
214585,000001A1,false,Rx,0,5,7C,CB,00,00,8A,00,00,00,
225410,00000112,false,Rx,0,8,FE,1F,C5,0B,20,03,65,4B,
235839,00000272,false,Rx,0,8,A7,F3,70,12,FF,FF,FF,FF,
236417,00000112,false,Rx,0,8,FE,1F,C5,0B,20,03,65,4B,
236598,000001A1,false,Rx,0,5,7C,CB,00,00,8A,00,00,00,
239444,0000003C,false,Rx,0,8,FF,5F,00,00,00,00,FF,FF,
240439,000003E9,false,Rx,0,8,08,52,00,00,00,00,00,00,
241417,00000431,false,Rx,0,8,CA,FF,0B,02,69,26,F3,4B,
242423,0000012F,false,Rx,0,8,F5,28,88,1D,F1,35,30,80,
243431,000002F1,false,Rx,0,8,A2,0F,00,18,1B,FB,06,A0,
244449,00000560,false,Rx,0,8,00,00,00,00,FE,00,00,60,
247403,00000112,false,Rx,0,8,FE,1F,C5,0B,20,03,65,4B,
258406,00000112,false,Rx,0,8,FE,1F,C5,0B,20,03,65,4B,
258572,000001A1,false,Rx,0,5,7C,CB,00,00,8A,00,00,00,
269396,00000112,false,Rx,0,8,FE,1F,C5,0B,20,03,65,4B,
280394,00000112,false,Rx,0,8,FE,1F,C5,0B,20,03,65,4B,
280569,000001A1,false,Rx,0,5,7C,CB,00,00,8A,00,00,00,
291393,00000112,false,Rx,0,8,FE,1F,C5,0B,20,03,65,4B,
302389,00000112,false,Rx,0,8,FE,1F,C5,0B,20,03,65,4B,
302564,000001A1,false,Rx,0,5,7C,CB,00,00,8A,00,00,00,
313388,00000112,false,Rx,0,8,FE,1F,C5,0B,20,03,65,4B,
324386,00000112,false,Rx,0,8,FE,1F,C5,0B,20,03,65,4B,
324562,000001A1,false,Rx,0,5,7C,CB,00,00,8A,00,00,00,
335386,00000112,false,Rx,0,8,FE,1F,C5,0B,20,03,65,4B,
340408,0000003C,false,Rx,0,8,FF,5F,00,00,00,00,FF,FF,
341412,000003E9,false,Rx,0,8,08,52,00,00,00,00,00,00,
342390,00000431,false,Rx,0,8,CA,FF,0B,02,69,26,F3,4B,
343397,0000012F,false,Rx,0,8,F5,28,88,1D,F1,35,30,80,
344405,000002F1,false,Rx,0,8,A2,0F,00,18,1B,FB,06,A0,
345421,00000560,false,Rx,0,8,00,00,00,00,FE,00,00,60,
345675,000002FA,false,Rx,0,8,84,04,00,FF,FF,FF,FF,FF,
346399,00000432,false,Rx,0,8,2C,E2,10,A3,A0,FF,02,FF,
347419,0000051A,false,Rx,0,8,00,00,00,00,50,00,00,1A,
348417,00000540,false,Rx,0,8,00,00,00,00,FD,3C,FF,40,
349423,00000510,false,Rx,0,8,40,10,20,00,00,00,00,00,
350372,00000328,false,Rx,0,6,76,00,00,00,87,1E,00,00,
351308,000003E8,false,Rx,0,2,F0,FF,00,00,00,00,00,00,
352415,000003F9,false,Rx,0,8,C0,F9,80,E0,43,3C,C3,FF,
353442,00000112,false,Rx,0,8,FE,1F,C5,0B,20,03,65,4B,
353611,000001A1,false,Rx,0,5,7C,CB,00,00,8A,00,00,00,
364422,00000112,false,Rx,0,8,FE,1F,C5,0B,20,03,65,4B,
375419,00000112,false,Rx,0,8,FE,1F,C5,0B,20,03,65,4B,
375594,000001A1,false,Rx,0,5,7C,CB,00,00,8A,00,00,00,
386419,00000112,false,Rx,0,8,FE,1F,C5,0B,20,03,65,4B,
397414,00000112,false,Rx,0,8,FE,1F,C5,0B,20,03,65,4B,
397590,000001A1,false,Rx,0,5,7C,CB,00,00,8A,00,00,00,
401061,000003B4,false,Rx,0,8,00,00,0C,F0,B8,FF,00,00,
408406,00000112,false,Rx,0,8,FE,1F,C5,0B,20,03,65,4B,
419403,00000112,false,Rx,0,8,FE,1F,C5,0B,20,03,65,4B,
419579,000001A1,false,Rx,0,5,7C,CB,00,00,8A,00,00,00,
430402,00000112,false,Rx,0,8,FE,1F,C5,0B,20,03,65,4B,
436431,00000272,false,Rx,0,8,29,F4,70,12,FF,FF,FF,FF,
441402,00000112,false,Rx,0,8,FE,1F,C5,0B,20,03,65,4B,
441660,0000003C,false,Rx,0,8,FF,5F,00,00,00,00,FF,FF,
441828,000001A1,false,Rx,0,5,7C,CB,00,00,8A,00,00,00,
442424,000003E9,false,Rx,0,8,08,52,00,00,00,00,00,00,
443402,00000431,false,Rx,0,8,CA,FF,0B,02,69,26,F3,4B,
444402,0000012F,false,Rx,0,8,F5,28,88,1D,F1,35,30,80,
445420,000002F1,false,Rx,0,8,A2,0F,00,18,1B,FB,06,A0,
446427,00000560,false,Rx,0,8,00,00,00,00,FE,00,00,60,
452398,00000112,false,Rx,0,8,FE,1F,C5,0B,20,03,65,4B,
463388,00000112,false,Rx,0,8,FE,1F,C5,0B,20,03,65,4B,
463564,000001A1,false,Rx,0,5,7C,CB,00,00,8A,00,00,00,
474388,00000112,false,Rx,0,8,FE,1F,C5,0B,20,03,65,4B,
485384,00000112,false,Rx,0,8,FE,1F,C5,0B,20,03,65,4B,
485561,000001A1,false,Rx,0,5,7C,CB,00,00,8A,00,00,00,
496385,00000112,false,Rx,0,8,FE,1F,C5,0B,20,03,65,4B,
507422,00000112,false,Rx,0,8,FE,1F,C5,0B,20,03,65,4B,
507598,000001A1,false,Rx,0,5,7C,CB,00,00,8A,00,00,00,
518422,00000112,false,Rx,0,8,FE,1F,C5,0B,20,03,65,4B,
529419,00000112,false,Rx,0,8,FE,1F,C5,0B,20,03,65,4B,
529595,000001A1,false,Rx,0,5,7C,CB,00,00,8A,00,00,00,
540419,00000112,false,Rx,0,8,FE,1F,C5,0B,20,03,65,4B,
542413,0000003C,false,Rx,0,8,FF,5F,00,00,00,00,FF,FF,
543407,000003E9,false,Rx,0,8,08,52,00,00,00,00,00,00,
544385,00000431,false,Rx,0,8,CA,FF,0B,02,69,26,F3,4B,
545393,0000012F,false,Rx,0,8,F5,28,88,1D,F1,35,30,80,
546400,000002F1,false,Rx,0,8,A2,0F,00,18,1B,FB,06,A0,
548164,00000351,false,Tx,1,8,00,00,00,01,00,00,00,00,
548293,00000356,false,Tx,1,8,B8,75,00,00,00,00,00,00,
548402,00000355,false,Tx,1,8,50,00,00,00,00,00,00,00,
547584,00000560,false,Rx,0,8,00,00,00,00,FE,00,00,60,
547654,000002FA,false,Rx,0,8,84,04,00,FF,FF,FF,FF,FF,
548407,00000432,false,Rx,0,8,2C,E2,10,A3,A0,FF,02,FF,
549409,0000051A,false,Rx,0,8,00,00,00,00,50,00,00,1A,
550417,00000540,false,Rx,0,8,00,00,00,00,FD,3C,FF,40,
551423,00000510,false,Rx,0,8,40,10,20,00,00,00,00,00,
552432,00000112,false,Rx,0,8,FE,1F,C5,0B,20,03,65,4B,
552610,000001A1,false,Rx,0,5,7C,CB,00,00,8A,00,00,00,
563422,00000112,false,Rx,0,8,FE,1F,C5,0B,20,03,65,4B,
574419,00000112,false,Rx,0,8,FE,1F,C5,0B,20,03,65,4B,
574596,000001A1,false,Rx,0,5,7C,CB,00,00,8A,00,00,00,
585419,00000112,false,Rx,0,8,FE,1F,C5,0B,20,03,65,4B,
596414,00000112,false,Rx,0,8,FE,1F,C5,0B,20,03,65,4B,
596591,000001A1,false,Rx,0,5,7C,CB,00,00,8A,00,00,00,
601370,000003B4,false,Rx,0,8,00,00,0C,F0,B8,FF,00,00,
607419,00000112,false,Rx,0,8,FE,1F,C5,0B,20,03,65,4B,
618416,00000112,false,Rx,0,8,FE,1F,C5,0B,20,03,65,4B,
618582,000001A1,false,Rx,0,5,7C,CB,00,00,8A,00,00,00,
629416,00000112,false,Rx,0,8,FE,1F,C5,0B,20,03,65,4B,
636541,00000272,false,Rx,0,8,74,F5,70,12,FF,FF,FF,FF,
640424,00000112,false,Rx,0,8,FE,1F,C5,0B,20,03,65,4B,
640601,000001A1,false,Rx,0,5,7C,CB,00,00,8A,00,00,00,
643444,0000003C,false,Rx,0,8,FF,5F,00,00,00,00,FF,FF,
644443,000003E9,false,Rx,0,8,08,52,00,00,00,00,00,00,
645429,00000431,false,Rx,0,8,CA,FF,0B,02,69,26,F3,4B,
646427,0000012F,false,Rx,0,8,F5,28,88,1D,F1,35,30,80,
647443,000002F1,false,Rx,0,8,A2,0F,00,18,1B,FB,06,A0,
648452,00000560,false,Rx,0,8,00,00,00,00,FE,00,00,60,
651414,00000112,false,Rx,0,8,FE,1F,C5,0B,20,03,65,4B,
662409,00000112,false,Rx,0,8,FE,1F,C5,0B,20,03,65,4B,
662585,000001A1,false,Rx,0,5,7C,CB,00,00,8A,00,00,00,
673409,00000112,false,Rx,0,8,FE,1F,C5,0B,20,03,65,4B,
684407,00000112,false,Rx,0,8,FE,1F,C5,0B,20,03,65,4B,
684572,000001A1,false,Rx,0,5,7C,CB,00,00,8A,00,00,00,
695396,00000112,false,Rx,0,8,FE,1F,C5,0B,20,03,65,4B,
706392,00000112,false,Rx,0,8,FE,1F,C5,0B,20,03,65,4B,
706567,000001A1,false,Rx,0,5,7C,CB,00,00,8A,00,00,00,
717395,00000112,false,Rx,0,8,FE,1F,C5,0B,20,03,65,4B,
728391,00000112,false,Rx,0,8,FE,1F,C5,0B,20,03,65,4B,
728567,000001A1,false,Rx,0,5,7C,CB,00,00,8A,00,00,00,
739391,00000112,false,Rx,0,8,FE,1F,C5,0B,20,03,65,4B,
744414,0000003C,false,Rx,0,8,FF,5F,00,00,00,00,FF,FF,
745417,000003E9,false,Rx,0,8,08,52,00,00,00,00,00,00,
746395,00000431,false,Rx,0,8,CA,FF,0B,02,69,26,F3,4B,
747392,0000012F,false,Rx,0,8,F5,28,88,1D,F1,35,30,80,
748410,000002F1,false,Rx,0,8,A2,0F,00,18,1B,FB,06,A0,
749416,00000560,false,Rx,0,8,00,00,00,00,FE,00,00,60,
749671,000002FA,false,Rx,0,8,84,04,00,FF,FF,FF,FF,FF,
750406,00000432,false,Rx,0,8,2C,E2,10,A3,A0,FF,02,FF,
751414,0000051A,false,Rx,0,8,00,00,00,00,50,00,00,1A,
752422,00000540,false,Rx,0,8,00,00,00,00,FD,3C,FF,40,
753428,00000510,false,Rx,0,8,40,10,20,00,00,00,00,00,
754438,00000112,false,Rx,0,8,FE,1F,C5,0B,20,03,65,4B,
754615,000001A1,false,Rx,0,5,7C,CB,00,00,8A,00,00,00,
765389,00000112,false,Rx,0,8,FE,1F,C5,0B,20,03,65,4B,
776425,00000112,false,Rx,0,8,FE,1F,C5,0B,20,03,65,4B,
776602,000001A1,false,Rx,0,5,7C,CB,00,00,8A,00,00,00,
787426,00000112,false,Rx,0,8,FE,1F,C5,0B,20,03,65,4B,
798422,00000112,false,Rx,0,8,FE,1F,C5,0B,20,03,65,4B,
798597,000001A1,false,Rx,0,5,7C,CB,00,00,8A,00,00,00,
801685,000003B4,false,Rx,0,8,00,00,0C,F0,B8,FF,00,00,
809426,00000112,false,Rx,0,8,FE,1F,C5,0B,20,03,65,4B,
820423,00000112,false,Rx,0,8,FE,1F,C5,0B,20,03,65,4B,
820589,000001A1,false,Rx,0,5,7C,CB,00,00,8A,00,00,00,
831414,00000112,false,Rx,0,8,FE,1F,C5,0B,20,03,65,4B,
836833,00000272,false,Rx,0,8,93,F6,70,12,FF,FF,FF,FF,
842422,00000112,false,Rx,0,8,FE,1F,C5,0B,20,03,65,4B,
842589,000001A1,false,Rx,0,5,7C,CB,00,00,8A,00,00,00,
845442,0000003C,false,Rx,0,8,FF,5F,00,00,00,00,FF,FF,
846441,000003E9,false,Rx,0,8,08,52,00,00,00,00,00,00,
847417,00000431,false,Rx,0,8,CA,FF,0B,02,69,26,F3,4B,
848424,0000012F,false,Rx,0,8,F5,28,88,1D,F1,35,30,80,
849431,000002F1,false,Rx,0,8,A2,0F,00,18,1B,FB,06,A0,
850440,00000560,false,Rx,0,8,00,00,00,00,FE,00,00,60,
853401,00000112,false,Rx,0,8,FE,1F,C5,0B,20,03,65,4B,
864398,00000112,false,Rx,0,8,FE,1F,C5,0B,20,03,65,4B,
864563,000001A1,false,Rx,0,5,7C,CB,00,00,8A,00,00,00,
875397,00000112,false,Rx,0,8,FE,1F,C5,0B,20,03,65,4B,
886393,00000112,false,Rx,0,8,FE,1F,C5,0B,20,03,65,4B,
886559,000001A1,false,Rx,0,5,7C,CB,00,00,8A,00,00,00,
897393,00000112,false,Rx,0,8,FE,1F,C5,0B,20,03,65,4B,
908430,00000112,false,Rx,0,8,FE,1F,C5,0B,20,03,65,4B,
908606,000001A1,false,Rx,0,5,7C,CB,00,00,8A,00,00,00,
919431,00000112,false,Rx,0,8,FE,1F,C5,0B,20,03,65,4B,
930417,00000112,false,Rx,0,8,FE,1F,C5,0B,20,03,65,4B,
930593,000001A1,false,Rx,0,5,7C,CB,00,00,8A,00,00,00,
941417,00000112,false,Rx,0,8,FE,1F,C5,0B,20,03,65,4B,
946449,0000003C,false,Rx,0,8,FF,5F,00,00,00,00,FF,FF,
947453,000003E9,false,Rx,0,8,08,52,00,00,00,00,00,00,
948430,00000431,false,Rx,0,8,CA,FF,0B,02,69,26,F3,4B,
949427,0000012F,false,Rx,0,8,F5,28,88,1D,F1,35,30,80,
950435,000002F1,false,Rx,0,8,A2,0F,00,18,1B,FB,06,A0,
951451,00000560,false,Rx,0,8,00,00,00,00,FE,00,00,60,
951706,000002FA,false,Rx,0,8,84,04,00,FF,FF,FF,FF,FF,
952441,00000432,false,Rx,0,8,2C,E2,10,A3,A0,FF,02,FF,
953449,0000051A,false,Rx,0,8,00,00,00,00,50,00,00,1A,
954457,00000540,false,Rx,0,8,00,00,00,00,FD,3C,FF,40,
955454,00000510,false,Rx,0,8,40,10,20,00,00,00,00,00,
956492,00000112,false,Rx,0,8,FE,1F,C5,0B,20,03,65,4B,
956660,000001A1,false,Rx,0,5,7C,CB,00,00,8A,00,00,00,
967432,00000112,false,Rx,0,8,FE,1F,C5,0B,20,03,65,4B,
978420,00000112,false,Rx,0,8,FE,1F,C5,0B,20,03,65,4B,
978597,000001A1,false,Rx,0,5,7C,CB,00,00,8A,00,00,00,
989421,00000112,false,Rx,0,8,FE,1F,C5,0B,20,03,65,4B,
1000417,00000112,false,Rx,0,8,FE,1F,C5,0B,20,03,65,4B,
1000593,000001A1,false,Rx,0,5,7C,CB,00,00,8A,00,00,00,
1002007,000003B4,false,Rx,0,8,00,00,0C,F0,B8,FF,00,00,
1011417,00000112,false,Rx,0,8,FE,1F,C5,0B,20,03,65,4B,
1022413,00000112,false,Rx,0,8,FE,1F,C5,0B,20,03,65,4B,
1022589,000001A1,false,Rx,0,5,7C,CB,00,00,8A,00,00,00,
1033412,00000112,false,Rx,0,8,FE,1F,C5,0B,20,03,65,4B,
1037439,00000272,false,Rx,0,8,CE,F7,70,12,FF,FF,FF,FF,
1044412,00000112,false,Rx,0,8,FE,1F,C5,0B,20,03,65,4B,
1044589,000001A1,false,Rx,0,5,7C,CB,00,00,8A,00,00,00,
1047432,0000003C,false,Rx,0,8,FF,5F,00,00,00,00,FF,FF,
1048431,000003E9,false,Rx,0,8,08,52,00,00,00,00,00,00,
1049417,00000431,false,Rx,0,8,CA,FF,0B,02,69,26,F3,4B,
1050415,0000012F,false,Rx,0,8,F5,28,88,1D,F1,35,30,80,
1051431,000002F1,false,Rx,0,8,A2,0F,00,18,1B,FB,06,A0,
1052440,00000560,false,Rx,0,8,00,00,00,00,FE,00,00,60,
1055402,00000112,false,Rx,0,8,FE,1F,C5,0B,20,03,65,4B,
1063958,00000351,false,Tx,1,8,00,00,00,01,00,00,00,00,
1064154,00000356,false,Tx,1,8,B8,75,00,00,00,00,00,00,
1064613,00000355,false,Tx,1,8,50,00,00,00,00,00,00,00,
1066401,00000112,false,Rx,0,8,FE,1F,C5,0B,20,03,65,4B,
1066577,000001A1,false,Rx,0,5,7C,CB,00,00,8A,00,00,00,
1077402,00000112,false,Rx,0,8,FE,1F,C5,0B,20,03,65,4B,
1088398,00000112,false,Rx,0,8,FE,1F,C5,0B,20,03,65,4B,
1088574,000001A1,false,Rx,0,5,7C,CB,00,00,8A,00,00,00,
1099398,00000112,false,Rx,0,8,FE,1F,C5,0B,20,03,65,4B,
1110394,00000112,false,Rx,0,8,FE,1F,C5,0B,20,03,65,4B,
1110569,000001A1,false,Rx,0,5,7C,CB,00,00,8A,00,00,00,
1121394,00000112,false,Rx,0,8,FE,1F,C5,0B,20,03,65,4B,
1132431,00000112,false,Rx,0,8,FE,1F,C5,0B,20,03,65,4B,
1132607,000001A1,false,Rx,0,5,7C,CB,00,00,8A,00,00,00,
1143432,00000112,false,Rx,0,8,FE,1F,C5,0B,20,03,65,4B,
1148414,0000003C,false,Rx,0,8,FF,5F,00,00,00,00,FF,FF,
1149418,000003E9,false,Rx,0,8,08,52,00,00,00,00,00,00,
1150395,00000431,false,Rx,0,8,CA,FF,0B,02,69,26,F3,4B,
1151393,0000012F,false,Rx,0,8,F5,28,88,1D,F1,35,30,80,
1152411,000002F1,false,Rx,0,8,A2,0F,00,18,1B,FB,06,A0,
1153417,00000560,false,Rx,0,8,00,00,00,00,FE,00,00,60,
1153671,000002FA,false,Rx,0,8,84,04,00,FF,FF,FF,FF,FF,
1154406,00000432,false,Rx,0,8,2C,E2,10,A3,A0,FF,02,FF,
1155415,0000051A,false,Rx,0,8,00,00,00,00,50,00,00,1A,
1156422,00000540,false,Rx,0,8,00,00,00,00,FD,3C,FF,40,
1157431,00000510,false,Rx,0,8,40,10,20,00,00,00,00,00,
1158439,00000112,false,Rx,0,8,FE,1F,C5,0B,20,03,65,4B,
1158617,000001A1,false,Rx,0,5,7C,CB,00,00,8A,00,00,00,
1169432,00000112,false,Rx,0,8,FE,1F,C5,0B,20,03,65,4B,
1180427,00000112,false,Rx,0,8,FE,1F,C5,0B,20,03,65,4B,
1180604,000001A1,false,Rx,0,5,7C,CB,00,00,8A,00,00,00,
1191429,00000112,false,Rx,0,8,FE,1F,C5,0B,20,03,65,4B,
1202202,00000337,false,Rx,0,2,FF,FF,00,00,00,00,00,00,
1202435,00000112,false,Rx,0,8,FE,1F,C5,0B,20,03,65,4B,
1202615,000001A1,false,Rx,0,5,7C,CB,00,00,8A,00,00,00,
1202868,000003B4,false,Rx,0,8,00,00,0C,F0,B8,FF,00,00,
1213433,00000112,false,Rx,0,8,FE,1F,C5,0B,20,03,65,4B,
1224421,00000112,false,Rx,0,8,FE,1F,C5,0B,20,03,65,4B,
1224597,000001A1,false,Rx,0,5,7C,CB,00,00,8A,00,00,00,
1235422,00000112,false,Rx,0,8,FE,1F,C5,0B,20,03,65,4B,
1237530,00000272,false,Rx,0,8,92,F8,70,12,FF,FF,FF,FF,
1246422,00000112,false,Rx,0,8,FE,1F,C5,0B,20,03,65,4B,
1246599,000001A1,false,Rx,0,5,7C,CB,00,00,8A,00,00,00,
1249442,0000003C,false,Rx,0,8,FF,5F,00,00,00,00,FF,FF,
1250451,000003E9,false,Rx,0,8,08,52,00,00,00,00,00,00,
1251427,00000431,false,Rx,0,8,CA,FF,0B,02,69,26,F3,4B,
1252425,0000012F,false,Rx,0,8,F5,28,88,1D,F1,35,30,80,
1253442,000002F1,false,Rx,0,8,A2,0F,00,18,1B,FB,06,A0,
1254450,00000560,false,Rx,0,8,00,00,00,00,FE,00,00,60,
1257412,00000112,false,Rx,0,8,FE,1F,C5,0B,20,03,65,4B,
1268409,00000112,false,Rx,0,8,FE,1F,C5,0B,20,03,65,4B,
1268574,000001A1,false,Rx,0,5,7C,CB,00,00,8A,00,00,00,
1279398,00000112,false,Rx,0,8,FE,1F,C5,0B,20,03,65,4B,
1290396,00000112,false,Rx,0,8,FE,1F,C5,0B,20,03,65,4B,
1290571,000001A1,false,Rx,0,5,7C,CB,00,00,8A,00,00,00,
1301396,00000112,false,Rx,0,8,FE,1F,C5,0B,20,03,65,4B,
1312392,00000112,false,Rx,0,8,FE,1F,C5,0B,20,03,65,4B,
1312568,000001A1,false,Rx,0,5,7C,CB,00,00,8A,00,00,00,
1323393,00000112,false,Rx,0,8,FE,1F,C5,0B,20,03,65,4B,
1334429,00000112,false,Rx,0,8,FE,1F,C5,0B,20,03,65,4B,
1334604,000001A1,false,Rx,0,5,7C,CB,00,00,8A,00,00,00,
1345429,00000112,false,Rx,0,8,FE,1F,C5,0B,20,03,65,4B,
1350411,0000003C,false,Rx,0,8,FF,5F,00,00,00,00,FF,FF,
1351415,000003E9,false,Rx,0,8,08,52,00,00,00,00,00,00,
1352393,00000431,false,Rx,0,8,CA,FF,0B,02,69,26,F3,4B,
1353401,0000012F,false,Rx,0,8,F5,28,88,1D,F1,35,30,80,
1354409,000002F1,false,Rx,0,8,A2,0F,00,18,1B,FB,06,A0,
1355416,00000560,false,Rx,0,8,00,00,00,00,FE,00,00,60,
1355670,000002FA,false,Rx,0,8,84,04,00,FF,FF,FF,FF,FF,
1356405,00000432,false,Rx,0,8,2C,E2,10,A3,A0,FF,02,FF,
1357413,0000051A,false,Rx,0,8,00,00,00,00,50,00,00,1A,
1358421,00000540,false,Rx,0,8,00,00,00,00,FD,3C,FF,40,
1359429,00000510,false,Rx,0,8,40,10,20,00,00,00,00,00,
1360376,00000328,false,Rx,0,6,77,00,00,00,87,1E,00,00,
1361312,000003E8,false,Rx,0,2,F0,FF,00,00,00,00,00,00,
1362418,000003F9,false,Rx,0,8,C0,F9,80,E0,43,3C,C3,FF,
1363445,00000112,false,Rx,0,8,FE,1F,C5,0B,20,03,65,4B,
1363615,000001A1,false,Rx,0,5,7C,CB,00,00,8A,00,00,00,
1374427,00000112,false,Rx,0,8,FE,1F,C5,0B,20,03,65,4B,
1385414,00000112,false,Rx,0,8,FE,1F,C5,0B,20,03,65,4B,
1385591,000001A1,false,Rx,0,5,7C,CB,00,00,8A,00,00,00,
1396414,00000112,false,Rx,0,8,FE,1F,C5,0B,20,03,65,4B,
1402627,000003B4,false,Rx,0,8,00,00,0C,F0,B8,FF,00,00,
1407414,00000112,false,Rx,0,8,FE,1F,C5,0B,20,03,65,4B,
1407589,000001A1,false,Rx,0,5,7C,CB,00,00,8A,00,00,00,
1418414,00000112,false,Rx,0,8,FE,1F,C5,0B,20,03,65,4B,
1429413,00000112,false,Rx,0,8,FE,1F,C5,0B,20,03,65,4B,
1429588,000001A1,false,Rx,0,5,7C,CB,00,00,8A,00,00,00,
1437802,00000272,false,Rx,0,8,CF,F9,70,12,FF,FF,FF,FF,
1440414,00000112,false,Rx,0,8,FE,1F,C5,0B,20,03,65,4B,
1451410,00000112,false,Rx,0,8,FE,1F,C5,0B,20,03,65,4B,
1451659,0000003C,false,Rx,0,8,FF,5F,00,00,00,00,FF,FF,
1451827,000001A1,false,Rx,0,5,7C,CB,00,00,8A,00,00,00,
1452433,000003E9,false,Rx,0,8,08,52,00,00,00,00,00,00,
1453411,00000431,false,Rx,0,8,CA,FF,0B,02,69,26,F3,4B,
1454411,0000012F,false,Rx,0,8,F5,28,88,1D,F1,35,30,80,
1455420,000002F1,false,Rx,0,8,A2,0F,00,18,1B,FB,06,A0,
1456436,00000560,false,Rx,0,8,00,00,00,00,FE,00,00,60,
1462410,00000112,false,Rx,0,8,FE,1F,C5,0B,20,03,65,4B,
1473407,00000112,false,Rx,0,8,FE,1F,C5,0B,20,03,65,4B,
1473572,000001A1,false,Rx,0,5,7C,CB,00,00,8A,00,00,00,
1484407,00000112,false,Rx,0,8,FE,1F,C5,0B,20,03,65,4B,
1495393,00000112,false,Rx,0,8,FE,1F,C5,0B,20,03,65,4B,
1495568,000001A1,false,Rx,0,5,7C,CB,00,00,8A,00,00,00,
1506402,00000112,false,Rx,0,8,FE,1F,C5,0B,20,03,65,4B,
1517439,00000112,false,Rx,0,8,FE,1F,C5,0B,20,03,65,4B,
1517615,000001A1,false,Rx,0,5,7C,CB,00,00,8A,00,00,00,
1528439,00000112,false,Rx,0,8,FE,1F,C5,0B,20,03,65,4B,
1539434,00000112,false,Rx,0,8,FE,1F,C5,0B,20,03,65,4B,
1539600,000001A1,false,Rx,0,5,7C,CB,00,00,8A,00,00,00,
1550425,00000112,false,Rx,0,8,FE,1F,C5,0B,20,03,65,4B,
1552421,0000003C,false,Rx,0,8,FF,5F,00,00,00,00,FF,FF,
1553415,000003E9,false,Rx,0,8,08,52,00,00,00,00,00,00,
1554392,00000431,false,Rx,0,8,CA,FF,0B,02,69,26,F3,4B,
1555400,0000012F,false,Rx,0,8,F5,28,88,1D,F1,35,30,80,
1556408,000002F1,false,Rx,0,8,A2,0F,00,18,1B,FB,06,A0,
1557425,00000560,false,Rx,0,8,00,00,00,00,FE,00,00,60,
1557656,000002FA,false,Rx,0,8,84,04,00,FF,FF,FF,FF,FF,
1558404,00000432,false,Rx,0,8,2C,E2,10,A3,A0,FF,02,FF,
1559422,0000051A,false,Rx,0,8,00,00,00,00,50,00,00,1A,
1560420,00000540,false,Rx,0,8,00,00,00,00,FD,3C,FF,40,
1561428,00000510,false,Rx,0,8,40,10,20,00,00,00,00,00,
1562436,00000112,false,Rx,0,8,FE,1F,C5,0B,20,03,65,4B,
1562613,000001A1,false,Rx,0,5,7C,CB,00,00,8A,00,00,00,
1573516,00000351,false,Tx,1,8,00,00,00,01,00,00,00,00,
1573691,00000356,false,Tx,1,8,B8,75,00,00,00,00,00,00,
1573816,00000355,false,Tx,1,8,50,00,00,00,00,00,00,00,
1573428,00000112,false,Rx,0,8,FE,1F,C5,0B,20,03,65,4B,
1584427,00000112,false,Rx,0,8,FE,1F,C5,0B,20,03,65,4B,
1584604,000001A1,false,Rx,0,5,7C,CB,00,00,8A,00,00,00,
1595428,00000112,false,Rx,0,8,FE,1F,C5,0B,20,03,65,4B,
1602940,000003B4,false,Rx,0,8,00,00,0C,F0,B8,FF,00,00,
1606426,00000112,false,Rx,0,8,FE,1F,C5,0B,20,03,65,4B,
1606602,000001A1,false,Rx,0,5,7C,CB,00,00,8A,00,00,00,
1617427,00000112,false,Rx,0,8,FE,1F,C5,0B,20,03,65,4B,
1628424,00000112,false,Rx,0,8,FE,1F,C5,0B,20,03,65,4B,
1628600,000001A1,false,Rx,0,5,7C,CB,00,00,8A,00,00,00,
1638408,00000272,false,Rx,0,8,28,FA,70,12,FF,FF,FF,FF,
1639392,00000112,false,Rx,0,8,FE,1F,C5,0B,20,03,65,4B,
1650432,00000112,false,Rx,0,8,FE,1F,C5,0B,20,03,65,4B,
1650609,000001A1,false,Rx,0,5,7C,CB,00,00,8A,00,00,00,
1653452,0000003C,false,Rx,0,8,FF,5F,00,00,00,00,FF,FF,
1654451,000003E9,false,Rx,0,8,08,52,00,00,00,00,00,00,
1655436,00000431,false,Rx,0,8,CA,FF,0B,02,69,26,F3,4B,
1656434,0000012F,false,Rx,0,8,F5,28,88,1D,F1,35,30,80,
1657452,000002F1,false,Rx,0,8,A2,0F,00,18,1B,FB,06,A0,
1658459,00000560,false,Rx,0,8,00,00,00,00,FE,00,00,60,
1661421,00000112,false,Rx,0,8,FE,1F,C5,0B,20,03,65,4B,
1672416,00000112,false,Rx,0,8,FE,1F,C5,0B,20,03,65,4B,
1672592,000001A1,false,Rx,0,5,7C,CB,00,00,8A,00,00,00,
1683416,00000112,false,Rx,0,8,FE,1F,C5,0B,20,03,65,4B,
1694404,00000112,false,Rx,0,8,FE,1F,C5,0B,20,03,65,4B,
1694580,000001A1,false,Rx,0,5,7C,CB,00,00,8A,00,00,00,
1705404,00000112,false,Rx,0,8,FE,1F,C5,0B,20,03,65,4B,
1716402,00000112,false,Rx,0,8,FE,1F,C5,0B,20,03,65,4B,
1716579,000001A1,false,Rx,0,5,7C,CB,00,00,8A,00,00,00,
1727403,00000112,false,Rx,0,8,FE,1F,C5,0B,20,03,65,4B,
1738399,00000112,false,Rx,0,8,FE,1F,C5,0B,20,03,65,4B,
1738575,000001A1,false,Rx,0,5,7C,CB,00,00,8A,00,00,00,
1749399,00000112,false,Rx,0,8,FE,1F,C5,0B,20,03,65,4B,
1754423,0000003C,false,Rx,0,8,FF,5F,00,00,00,00,FF,FF,
1755427,000003E9,false,Rx,0,8,08,52,00,00,00,00,00,00,
1756405,00000431,false,Rx,0,8,CA,FF,0B,02,69,26,F3,4B,
1757402,0000012F,false,Rx,0,8,F5,28,88,1D,F1,35,30,80,
1758420,000002F1,false,Rx,0,8,A2,0F,00,18,1B,FB,06,A0,
1759426,00000560,false,Rx,0,8,00,00,00,00,FE,00,00,60,
1759681,000002FA,false,Rx,0,8,84,04,00,FF,FF,FF,FF,FF,
1760416,00000432,false,Rx,0,8,2C,E2,10,A3,A0,FF,02,FF,
1761425,0000051A,false,Rx,0,8,00,00,00,00,50,00,00,1A,
1762433,00000540,false,Rx,0,8,00,00,00,00,FD,3C,FF,40,
1763431,00000510,false,Rx,0,8,40,10,20,00,00,00,00,00,
1764450,00000112,false,Rx,0,8,FE,1F,C5,0B,20,03,65,4B,
1764627,000001A1,false,Rx,0,5,7C,CB,00,00,8A,00,00,00,
1775432,00000112,false,Rx,0,8,FE,1F,C5,0B,20,03,65,4B,
1786428,00000112,false,Rx,0,8,FE,1F,C5,0B,20,03,65,4B,
1786604,000001A1,false,Rx,0,5,7C,CB,00,00,8A,00,00,00,
1797428,00000112,false,Rx,0,8,FE,1F,C5,0B,20,03,65,4B,
1803252,000003B4,false,Rx,0,8,00,00,0C,F0,B8,FF,00,00,
1808437,00000112,false,Rx,0,8,FE,1F,C5,0B,20,03,65,4B,
1808612,000001A1,false,Rx,0,5,7C,CB,00,00,8A,00,00,00,
1819436,00000112,false,Rx,0,8,FE,1F,C5,0B,20,03,65,4B,
1830434,00000112,false,Rx,0,8,FE,1F,C5,0B,20,03,65,4B,
1830609,000001A1,false,Rx,0,5,7C,CB,00,00,8A,00,00,00,
1838396,00000272,false,Rx,0,8,75,FB,70,12,FF,FF,FF,FF,
1841437,00000112,false,Rx,0,8,FE,1F,C5,0B,20,03,65,4B,
1852433,00000112,false,Rx,0,8,FE,1F,C5,0B,20,03,65,4B,
1852610,000001A1,false,Rx,0,5,7C,CB,00,00,8A,00,00,00,
1855452,0000003C,false,Rx,0,8,FF,5F,00,00,00,00,FF,FF,
1856451,000003E9,false,Rx,0,8,08,52,00,00,00,00,00,00,
1857427,00000431,false,Rx,0,8,CA,FF,0B,02,69,26,F3,4B,
1858435,0000012F,false,Rx,0,8,F5,28,88,1D,F1,35,30,80,
1859442,000002F1,false,Rx,0,8,A2,0F,00,18,1B,FB,06,A0,
1860460,00000560,false,Rx,0,8,00,00,00,00,FE,00,00,60,
1863422,00000112,false,Rx,0,8,FE,1F,C5,0B,20,03,65,4B,
1874419,00000112,false,Rx,0,8,FE,1F,C5,0B,20,03,65,4B,
1874594,000001A1,false,Rx,0,5,7C,CB,00,00,8A,00,00,00,
1885409,00000112,false,Rx,0,8,FE,1F,C5,0B,20,03,65,4B,
1896406,00000112,false,Rx,0,8,FE,1F,C5,0B,20,03,65,4B,
1896582,000001A1,false,Rx,0,5,7C,CB,00,00,8A,00,00,00,
1907406,00000112,false,Rx,0,8,FE,1F,C5,0B,20,03,65,4B,
