Time Stamp,ID,Extended,Dir,Bus,LEN,D1,D2,D3,D4,D5,D6,D7,D8
0,00000351,false,Tx,1,8,00,00,00,01,00,00,00,00,
139,00000356,false,Tx,1,8,B8,88,00,00,00,00,00,00,
310,00000355,false,Tx,1,8,50,00,00,00,00,00,00,00,
516386,00000351,false,Tx,1,8,00,00,00,01,00,00,00,00,
516497,00000356,false,Tx,1,8,B8,88,00,00,00,00,00,00,
516631,00000355,false,Tx,1,8,50,00,00,00,00,00,00,00,
1032621,00000351,false,Tx,1,8,00,00,00,01,00,00,00,00,
1032772,00000356,false,Tx,1,8,B8,88,00,00,00,00,00,00,
1032939,00000355,false,Tx,1,8,50,00,00,00,00,00,00,00,
1357543,00000112,false,Rx,0,8,FE,1F,AC,0D,20,03,65,57,
1357716,000001A1,false,Rx,0,5,7C,CB,00,00,8A,00,00,00,
1368546,00000112,false,Rx,0,8,FE,1F,AC,0D,20,03,65,57,
1379544,00000112,false,Rx,0,8,FE,1F,AC,0D,20,03,65,57,
1379717,000001A1,false,Rx,0,5,7C,CB,00,00,8A,00,00,00,
1390548,00000112,false,Rx,0,8,FE,1F,AC,0D,20,03,65,57,
1401587,00000112,false,Rx,0,8,FE,1F,AC,0D,20,03,65,57,
1401760,000001A1,false,Rx,0,5,7C,CB,00,00,8A,00,00,00,
1412549,00000112,false,Rx,0,8,FE,1F,AC,0D,20,03,65,57,
1423587,00000112,false,Rx,0,8,FE,1F,AC,0D,20,03,65,57,
1423761,000001A1,false,Rx,0,5,7C,CB,00,00,8A,00,00,00,
1434541,00000112,false,Rx,0,8,FE,1F,AC,0D,20,03,65,57,
1438585,0000003C,false,Rx,0,8,FF,5F,00,00,00,00,FF,FF,
1439584,000003E9,false,Rx,0,8,00,00,00,00,00,00,00,00,
1440568,00000431,false,Rx,0,8,CA,FF,0B,02,69,26,F3,4B,
1441570,0000012F,false,Rx,0,8,F5,28,8A,1D,F1,35,30,80,
1442583,000002F1,false,Rx,0,8,9A,10,7D,00,00,00,00,A0,
1445549,00000112,false,Rx,0,8,FE,1F,AC,0D,20,03,65,57,
1445721,000001A1,false,Rx,0,5,7C,CB,00,00,8A,00,00,00,
1456553,00000112,false,Rx,0,8,FE,1F,AC,0D,20,03,65,57,
1461659,000003C3,false,Rx,0,8,7E,1C,49,02,00,00,00,00,
1467566,00000112,false,Rx,0,8,FE,1F,AC,0D,20,03,65,57,
1467738,000001A1,false,Rx,0,5,7C,CB,00,00,8A,00,00,00,
1471685,000003B4,false,Rx,0,8,00,00,0C,F0,B8,FF,00,00,
1478571,00000112,false,Rx,0,8,FE,1F,AC,0D,20,03,65,57,
1489569,00000112,false,Rx,0,8,FE,1F,AC,0D,20,03,65,57,
1489742,000001A1,false,Rx,0,5,7C,CB,00,00,8A,00,00,00,
1500573,00000112,false,Rx,0,8,FE,1F,AC,0D,20,03,65,57,
1506809,00000272,false,Rx,0,8,A2,F7,00,12,FF,FF,FF,FF,
1511566,00000112,false,Rx,0,8,FE,1F,AC,0D,20,03,65,57,
1511748,000001A1,false,Rx,0,5,7C,CB,00,00,8A,00,00,00,
1522568,00000112,false,Rx,0,8,FE,1F,AC,0D,20,03,65,57,
1533567,00000112,false,Rx,0,8,FE,1F,AC,0D,20,03,65,57,
1533739,000001A1,false,Rx,0,5,7C,CB,00,00,8A,00,00,00,
1539587,0000003C,false,Rx,0,8,FF,5F,00,00,00,00,FF,FF,
1540586,000003E9,false,Rx,0,8,00,00,00,00,00,00,00,00,
1541559,00000431,false,Rx,0,8,CA,FF,0B,02,69,26,F3,4B,
1542561,0000012F,false,Rx,0,8,F5,28,8A,1D,F1,35,30,80,
1543575,000002F1,false,Rx,0,8,9A,10,7D,00,00,00,00,A0,
1543831,000002FA,false,Rx,0,8,FD,FF,00,00,FF,FF,FF,FF,
1544565,00000432,false,Rx,0,8,2C,E2,10,A3,A0,FF,02,FF,
1545578,0000051A,false,Rx,0,8,00,00,00,00,50,00,00,1A,
1546582,00000540,false,Rx,0,8,00,00,00,00,FD,3C,FF,40,
1547595,00000510,false,Rx,0,8,40,10,20,00,00,00,00,00,
1548547,00000328,false,Rx,0,6,3A,00,00,00,87,1E,00,00,
1549549,000003E8,false,Rx,0,6,F1,FF,00,00,87,1E,00,00,
1550581,000003F9,false,Rx,0,8,C0,F9,80,E0,43,3C,C3,FF,
1551615,00000112,false,Rx,0,8,FE,1F,AC,0D,20,03,65,57,
1562284,00000351,false,Tx,1,8,00,00,00,01,00,00,00,00,
1562427,00000356,false,Tx,1,8,B8,88,00,00,00,00,00,00,
1562601,00000355,false,Tx,1,8,50,00,00,00,00,00,00,00,
1562553,00000112,false,Rx,0,8,FE,1F,AC,0D,20,03,65,57,
1562727,000001A1,false,Rx,0,5,7C,CB,00,00,8A,00,00,00,
1573559,00000112,false,Rx,0,8,FE,1F,AC,0D,20,03,65,57,
1584557,00000112,false,Rx,0,8,FE,1F,AC,0D,20,03,65,57,
1584729,000001A1,false,Rx,0,5,7C,CB,00,00,8A,00,00,00,
1595559,00000112,false,Rx,0,8,FE,1F,AC,0D,20,03,65,57,
1606551,00000112,false,Rx,0,8,FE,1F,AC,0D,20,03,65,57,
1606733,000001A1,false,Rx,0,5,7C,CB,00,00,8A,00,00,00,
1617553,00000112,false,Rx,0,8,FE,1F,AC,0D,20,03,65,57,
1628551,00000112,false,Rx,0,8,FE,1F,AC,0D,20,03,65,57,
1628725,000001A1,false,Rx,0,5,7C,CB,00,00,8A,00,00,00,
1639554,00000112,false,Rx,0,8,FE,1F,AC,0D,20,03,65,57,
1640603,0000003C,false,Rx,0,8,FF,5F,00,00,00,00,FF,FF,
1641612,000003E9,false,Rx,0,8,00,00,00,00,00,00,00,00,
1642576,00000431,false,Rx,0,8,CA,FF,0B,02,69,26,F3,4B,
1643580,0000012F,false,Rx,0,8,F5,28,8A,1D,F1,35,30,80,
1644603,000002F1,false,Rx,0,8,9A,10,7D,00,00,00,00,A0,
1650554,00000112,false,Rx,0,8,FE,1F,AC,0D,20,03,65,57,
1650727,000001A1,false,Rx,0,5,7C,CB,00,00,8A,00,00,00,
1661559,00000112,false,Rx,0,8,FE,1F,AC,0D,20,03,65,57,
1671989,000003B4,false,Rx,0,8,00,00,0C,F0,B8,FF,00,00,
1672551,00000112,false,Rx,0,8,FE,1F,AC,0D,20,03,65,57,
1672727,000001A1,false,Rx,0,5,7C,CB,00,00,8A,00,00,00,
1683552,00000112,false,Rx,0,8,FE,1F,AC,0D,20,03,65,57,
1694551,00000112,false,Rx,0,8,FE,1F,AC,0D,20,03,65,57,
1694725,000001A1,false,Rx,0,5,7C,CB,00,00,8A,00,00,00,
1705554,00000112,false,Rx,0,8,FE,1F,AC,0D,20,03,65,57,
1707468,00000272,false,Rx,0,8,FE,F8,00,12,FF,FF,FF,FF,
1716556,00000112,false,Rx,0,8,FE,1F,AC,0D,20,03,65,57,
1716728,000001A1,false,Rx,0,5,7C,CB,00,00,8A,00,00,00,
1727557,00000112,false,Rx,0,8,FE,1F,AC,0D,20,03,65,57,
1738548,00000112,false,Rx,0,8,FE,1F,AC,0D,20,03,65,57,
1738730,000001A1,false,Rx,0,5,7C,CB,00,00,8A,00,00,00,
1741573,0000003C,false,Rx,0,8,FF,5F,00,00,00,00,FF,FF,
1742575,000003E9,false,Rx,0,8,00,00,00,00,00,00,00,00,
1743547,00000431,false,Rx,0,8,CA,FF,0B,02,69,26,F3,4B,
1744550,0000012F,false,Rx,0,8,F5,28,8A,1D,F1,35,30,80,
1745562,000002F1,false,Rx,0,8,9A,10,7D,00,00,00,00,A0,
1745819,000002FA,false,Rx,0,8,FD,FF,00,00,FF,FF,FF,FF,
1746554,00000432,false,Rx,0,8,2C,E2,10,A3,A0,FF,02,FF,
1747568,0000051A,false,Rx,0,8,00,00,00,00,50,00,00,1A,
1748572,00000540,false,Rx,0,8,00,00,00,00,FD,3C,FF,40,
1749584,00000510,false,Rx,0,8,40,10,20,00,00,00,00,00,
1750596,00000112,false,Rx,0,8,FE,1F,AC,0D,20,03,65,57,
1761587,00000112,false,Rx,0,8,FE,1F,AC,0D,20,03,65,57,
1761759,000001A1,false,Rx,0,5,7C,CB,00,00,8A,00,00,00,
1772549,00000112,false,Rx,0,8,FE,1F,AC,0D,20,03,65,57,
1783588,00000112,false,Rx,0,8,FE,1F,AC,0D,20,03,65,57,
1783760,000001A1,false,Rx,0,5,7C,CB,00,00,8A,00,00,00,
1794551,00000112,false,Rx,0,8,FE,1F,AC,0D,20,03,65,57,
1805591,00000112,false,Rx,0,8,FE,1F,AC,0D,20,03,65,57,
1805763,000001A1,false,Rx,0,5,7C,CB,00,00,8A,00,00,00,
1816553,00000112,false,Rx,0,8,FE,1F,AC,0D,20,03,65,57,
1827594,00000112,false,Rx,0,8,FE,1F,AC,0D,20,03,65,57,
1827766,000001A1,false,Rx,0,5,7C,CB,00,00,8A,00,00,00,
1838546,00000112,false,Rx,0,8,FE,1F,AC,0D,20,03,65,57,
1842592,0000003C,false,Rx,0,8,FF,5F,00,00,00,00,FF,FF,
1843591,000003E9,false,Rx,0,8,00,00,00,00,00,00,00,00,
1844575,00000431,false,Rx,0,8,CA,FF,0B,02,69,26,F3,4B,
1845567,0000012F,false,Rx,0,8,F5,28,8A,1D,F1,35,30,80,
1846590,000002F1,false,Rx,0,8,9A,10,7D,00,00,00,00,A0,
1849546,00000112,false,Rx,0,8,FE,1F,AC,0D,20,03,65,57,
1849729,000001A1,false,Rx,0,5,7C,CB,00,00,8A,00,00,00,
1860549,00000112,false,Rx,0,8,FE,1F,AC,0D,20,03,65,57,
1871591,00000112,false,Rx,0,8,FE,1F,AC,0D,20,03,65,57,
1871763,000001A1,false,Rx,0,5,7C,CB,00,00,8A,00,00,00,
1872313,000003B4,false,Rx,0,8,00,00,0C,F0,B8,FF,00,00,
1882554,00000112,false,Rx,0,8,FE,1F,AC,0D,20,03,65,57,
1893545,00000112,false,Rx,0,8,FE,1F,AC,0D,20,03,65,57,
1893718,000001A1,false,Rx,0,5,7C,CB,00,00,8A,00,00,00,
1904549,00000112,false,Rx,0,8,FE,1F,AC,0D,20,03,65,57,
1907494,00000272,false,Rx,0,8,A3,F9,00,12,FF,FF,FF,FF,
1915541,00000112,false,Rx,0,8,FE,1F,AC,0D,20,03,65,57,
1915723,000001A1,false,Rx,0,5,7C,CB,00,00,8A,00,00,00,
1926593,00000112,false,Rx,0,8,FE,1F,AC,0D,20,03,65,57,
1937582,00000112,false,Rx,0,8,FE,1F,AC,0D,20,03,65,57,
1937755,000001A1,false,Rx,0,5,7C,CB,00,00,8A,00,00,00,
1943602,0000003C,false,Rx,0,8,FF,5F,00,00,00,00,FF,FF,
1944602,000003E9,false,Rx,0,8,00,00,00,00,00,00,00,00,
1945575,00000431,false,Rx,0,8,CA,FF,0B,02,69,26,F3,4B,
1946576,0000012F,false,Rx,0,8,F5,28,8A,1D,F1,35,30,80,
1947590,000002F1,false,Rx,0,8,9A,10,7D,00,00,00,00,A0,
1947846,000002FA,false,Rx,0,8,FD,FF,00,00,FF,FF,FF,FF,
1948590,00000432,false,Rx,0,8,2C,E2,10,A3,A0,FF,02,FF,
1949593,0000051A,false,Rx,0,8,00,00,00,00,50,00,00,1A,
1950598,00000540,false,Rx,0,8,00,00,00,00,FD,3C,FF,40,
1951601,00000510,false,Rx,0,8,40,10,20,00,00,00,00,00,
1952623,00000112,false,Rx,0,8,FE,1F,AC,0D,20,03,65,57,
1963568,00000112,false,Rx,0,8,FE,1F,AC,0D,20,03,65,57,
1963740,000001A1,false,Rx,0,5,7C,CB,00,00,8A,00,00,00,
1974571,00000112,false,Rx,0,8,FE,1F,AC,0D,20,03,65,57,
1985569,00000112,false,Rx,0,8,FE,1F,AC,0D,20,03,65,57,
1985742,000001A1,false,Rx,0,5,7C,CB,00,00,8A,00,00,00,
1996574,00000112,false,Rx,0,8,FE,1F,AC,0D,20,03,65,57,
2007563,00000112,false,Rx,0,8,FE,1F,AC,0D,20,03,65,57,
2007745,000001A1,false,Rx,0,5,7C,CB,00,00,8A,00,00,00,
2018565,00000112,false,Rx,0,8,FE,1F,AC,0D,20,03,65,57,
2029564,00000112,false,Rx,0,8,FE,1F,AC,0D,20,03,65,57,
2029737,000001A1,false,Rx,0,5,7C,CB,00,00,8A,00,00,00,
2040566,00000112,false,Rx,0,8,FE,1F,AC,0D,20,03,65,57,
2044611,0000003C,false,Rx,0,8,FF,5F,00,00,00,00,FF,FF,
2045610,000003E9,false,Rx,0,8,00,00,00,00,00,00,00,00,
2046585,00000431,false,Rx,0,8,CA,FF,0B,02,69,26,F3,4B,
2047586,0000012F,false,Rx,0,8,F5,28,8A,1D,F1,35,30,80,
2048600,000002F1,false,Rx,0,8,9A,10,7D,00,00,00,00,A0,
2051566,00000112,false,Rx,0,8,FE,1F,AC,0D,20,03,65,57,
2051739,000001A1,false,Rx,0,5,7C,CB,00,00,8A,00,00,00,
2062568,00000112,false,Rx,0,8,FE,1F,AC,0D,20,03,65,57,
2072627,000003B4,false,Rx,0,8,00,00,0C,F0,B8,FF,00,00,
2073577,00000112,false,Rx,0,8,FE,1F,AC,0D,20,03,65,57,
2073743,000001A1,false,Rx,0,5,7C,CB,00,00,8A,00,00,00,
2084574,00000112,false,Rx,0,8,FE,1F,AC,0D,20,03,65,57,
2095574,00000112,false,Rx,0,8,FE,1F,AC,0D,20,03,65,57,
2095748,000001A1,false,Rx,0,5,7C,CB,00,00,8A,00,00,00,
2104494,00000351,false,Tx,1,8,00,00,00,01,00,00,00,00,
2104641,00000356,false,Tx,1,8,B8,88,00,00,00,00,00,00,
2104796,00000355,false,Tx,1,8,50,00,00,00,00,00,00,00,
2106585,00000112,false,Rx,0,8,FE,1F,AC,0D,20,03,65,57,
2107833,00000272,false,Rx,0,8,44,FA,00,12,FF,FF,FF,FF,
2117586,00000112,false,Rx,0,8,FE,1F,AC,0D,20,03,65,57,
2117758,000001A1,false,Rx,0,5,7C,CB,00,00,8A,00,00,00,
2128588,00000112,false,Rx,0,8,FE,1F,AC,0D,20,03,65,57,
2139587,00000112,false,Rx,0,8,FE,1F,AC,0D,20,03,65,57,
2139760,000001A1,false,Rx,0,5,7C,CB,00,00,8A,00,00,00,
2145598,0000003C,false,Rx,0,8,FF,5F,00,00,00,00,FF,FF,
2146607,000003E9,false,Rx,0,8,00,00,00,00,00,00,00,00,
2147580,00000431,false,Rx,0,8,CA,FF,0B,02,69,26,F3,4B,
2148581,0000012F,false,Rx,0,8,F5,28,8A,1D,F1,35,30,80,
2149595,000002F1,false,Rx,0,8,9A,10,7D,00,00,00,00,A0,
2149843,000002FA,false,Rx,0,8,FD,FF,00,00,FF,FF,FF,FF,
2150587,00000432,false,Rx,0,8,2C,E2,10,A3,A0,FF,02,FF,
2151600,0000051A,false,Rx,0,8,00,00,00,00,50,00,00,1A,
2152605,00000540,false,Rx,0,8,00,00,00,00,FD,3C,FF,40,
2153608,00000510,false,Rx,0,8,40,10,20,00,00,00,00,00,
2154629,00000112,false,Rx,0,8,FE,1F,AC,0D,20,03,65,57,
2165563,00000112,false,Rx,0,8,FE,1F,AC,0D,20,03,65,57,
2165735,000001A1,false,Rx,0,5,7C,CB,00,00,8A,00,00,00,
2176566,00000112,false,Rx,0,8,FE,1F,AC,0D,20,03,65,57,
2187564,00000112,false,Rx,0,8,FE,1F,AC,0D,20,03,65,57,
2187737,000001A1,false,Rx,0,5,7C,CB,00,00,8A,00,00,00,
2198569,00000112,false,Rx,0,8,FE,1F,AC,0D,20,03,65,57,
2209558,00000112,false,Rx,0,8,FE,1F,AC,0D,20,03,65,57,
2209730,000001A1,false,Rx,0,5,7C,CB,00,00,8A,00,00,00,
2220560,00000112,false,Rx,0,8,FE,1F,AC,0D,20,03,65,57,
2231560,00000112,false,Rx,0,8,FE,1F,AC,0D,20,03,65,57,
2231733,000001A1,false,Rx,0,5,7C,CB,00,00,8A,00,00,00,
2242563,00000112,false,Rx,0,8,FE,1F,AC,0D,20,03,65,57,
2246607,0000003C,false,Rx,0,8,FF,5F,00,00,00,00,FF,FF,
2247607,000003E9,false,Rx,0,8,00,00,00,00,00,00,00,00,
2248581,00000431,false,Rx,0,8,CA,FF,0B,02,69,26,F3,4B,
2249583,0000012F,false,Rx,0,8,F5,28,8A,1D,F1,35,30,80,
2250596,000002F1,false,Rx,0,8,9A,10,7D,00,00,00,00,A0,
2253562,00000112,false,Rx,0,8,FE,1F,AC,0D,20,03,65,57,
2253734,000001A1,false,Rx,0,5,7C,CB,00,00,8A,00,00,00,
2264566,00000112,false,Rx,0,8,FE,1F,AC,0D,20,03,65,57,
2272832,00000337,false,Rx,0,2,FF,FF,00,00,00,00,00,00,
2273114,000003B4,false,Rx,0,8,00,00,0C,F0,B8,FF,00,00,
2275565,00000112,false,Rx,0,8,FE,1F,AC,0D,20,03,65,57,
2275741,000001A1,false,Rx,0,5,7C,CB,00,00,8A,00,00,00,
2286567,00000112,false,Rx,0,8,FE,1F,AC,0D,20,03,65,57,
2297566,00000112,false,Rx,0,8,FE,1F,AC,0D,20,03,65,57,
2297740,000001A1,false,Rx,0,5,7C,CB,00,00,8A,00,00,00,
2308381,00000272,false,Rx,0,8,19,FB,00,12,FF,FF,FF,FF,
2308603,00000112,false,Rx,0,8,FE,1F,AC,0D,20,03,65,57,
2319566,00000112,false,Rx,0,8,FE,1F,AC,0D,20,03,65,57,
2319738,000001A1,false,Rx,0,5,7C,CB,00,00,8A,00,00,00,
2330571,00000112,false,Rx,0,8,FE,1F,AC,0D,20,03,65,57,
2341561,00000112,false,Rx,0,8,FE,1F,AC,0D,20,03,65,57,
2341733,000001A1,false,Rx,0,5,7C,CB,00,00,8A,00,00,00,
2347571,0000003C,false,Rx,0,8,FF,5F,00,00,00,00,FF,FF,
2348580,000003E9,false,Rx,0,8,00,00,00,00,00,00,00,00,
2349553,00000431,false,Rx,0,8,CA,FF,0B,02,69,26,F3,4B,
2350554,0000012F,false,Rx,0,8,F5,28,8A,1D,F1,35,30,80,
2351569,000002F1,false,Rx,0,8,9A,10,7D,00,00,00,00,A0,
2351824,000002FA,false,Rx,0,8,FD,FF,00,00,FF,FF,FF,FF,
2352559,00000432,false,Rx,0,8,2C,E2,10,A3,A0,FF,02,FF,
2353582,0000051A,false,Rx,0,8,00,00,00,00,50,00,00,1A,
2354577,00000540,false,Rx,0,8,00,00,00,00,FD,3C,FF,40,
2355589,00000510,false,Rx,0,8,40,10,20,00,00,00,00,00,
2356601,00000112,false,Rx,0,8,FE,1F,AC,0D,20,03,65,57,
2367594,00000112,false,Rx,0,8,FE,1F,AC,0D,20,03,65,57,
2367766,000001A1,false,Rx,0,5,7C,CB,00,00,8A,00,00,00,
2378556,00000112,false,Rx,0,8,FE,1F,AC,0D,20,03,65,57,
2389594,00000112,false,Rx,0,8,FE,1F,AC,0D,20,03,65,57,
2389768,000001A1,false,Rx,0,5,7C,CB,00,00,8A,00,00,00,
2400548,00000112,false,Rx,0,8,FE,1F,AC,0D,20,03,65,57,
2411586,00000112,false,Rx,0,8,FE,1F,AC,0D,20,03,65,57,
2411768,000001A1,false,Rx,0,5,7C,CB,00,00,8A,00,00,00,
2422588,00000112,false,Rx,0,8,FE,1F,AC,0D,20,03,65,57,
2423171,000003C3,false,Rx,0,8,70,04,06,61,1C,C4,63,20,
2433590,00000112,false,Rx,0,8,FE,1F,AC,0D,20,03,65,57,
2433763,000001A1,false,Rx,0,5,7C,CB,00,00,8A,00,00,00,
2444593,00000112,false,Rx,0,8,FE,1F,AC,0D,20,03,65,57,
2448587,0000003C,false,Rx,0,8,FF,5F,00,00,00,00,FF,FF,
2449586,000003E9,false,Rx,0,8,00,00,00,00,00,00,00,00,
2450570,00000431,false,Rx,0,8,CA,FF,0B,02,69,26,F3,4B,
2451572,0000012F,false,Rx,0,8,F5,28,8A,1D,F1,35,30,80,
2452585,000002F1,false,Rx,0,8,9A,10,7D,00,00,00,00,A0,
2455591,00000112,false,Rx,0,8,FE,1F,AC,0D,20,03,65,57,
2455764,000001A1,false,Rx,0,5,7C,CB,00,00,8A,00,00,00,
2466594,00000112,false,Rx,0,8,FE,1F,AC,0D,20,03,65,57,
2473250,000003B4,false,Rx,0,8,00,00,0C,F0,B8,FF,00,00,
2477595,00000112,false,Rx,0,8,FE,1F,AC,0D,20,03,65,57,
2477768,000001A1,false,Rx,0,5,7C,CB,00,00,8A,00,00,00,
2488549,00000112,false,Rx,0,8,FE,1F,AC,0D,20,03,65,57,
2499591,00000112,false,Rx,0,8,FE,1F,AC,0D,20,03,65,57,
2499763,000001A1,false,Rx,0,5,7C,CB,00,00,8A,00,00,00,
2508402,00000272,false,Rx,0,8,97,FC,00,12,FF,FF,FF,FF,
2510546,00000112,false,Rx,0,8,FE,1F,AC,0D,20,03,65,57,
2521596,00000112,false,Rx,0,8,FE,1F,AC,0D,20,03,65,57,
2521768,000001A1,false,Rx,0,5,7C,CB,00,00,8A,00,00,00,
2532558,00000112,false,Rx,0,8,FE,1F,AC,0D,20,03,65,57,
2543597,00000112,false,Rx,0,8,FE,1F,AC,0D,20,03,65,57,
2543770,000001A1,false,Rx,0,5,7C,CB,00,00,8A,00,00,00,
2549608,0000003C,false,Rx,0,8,FF,5F,00,00,00,00,FF,FF,
2550618,000003E9,false,Rx,0,8,00,00,00,00,00,00,00,00,
2551591,00000431,false,Rx,0,8,CA,FF,0B,02,69,26,F3,4B,
2552594,0000012F,false,Rx,0,8,F5,28,8A,1D,F1,35,30,80,
2553607,000002F1,false,Rx,0,8,9A,10,7D,00,00,00,00,A0,
2553855,000002FA,false,Rx,0,8,FD,FF,00,00,FF,FF,FF,FF,
2554599,00000432,false,Rx,0,8,2C,E2,10,A3,A0,FF,02,FF,
2555612,0000051A,false,Rx,0,8,00,00,00,00,50,00,00,1A,
2556616,00000540,false,Rx,0,8,00,00,00,00,FD,3C,FF,40,
2557619,00000510,false,Rx,0,8,40,10,20,00,00,00,00,00,
2558571,00000328,false,Rx,0,6,3B,00,00,00,87,1E,00,00,
2559575,000003E8,false,Rx,0,6,F1,FF,00,00,87,1E,00,00,
2560615,000003F9,false,Rx,0,8,C0,F9,80,E0,43,3C,C3,FF,
2561638,00000112,false,Rx,0,8,FE,1F,AC,0D,20,03,65,57,
2572579,00000112,false,Rx,0,8,FE,1F,AC,0D,20,03,65,57,
2572761,000001A1,false,Rx,0,5,7C,CB,00,00,8A,00,00,00,
2583585,00000112,false,Rx,0,8,FE,1F,AC,0D,20,03,65,57,
2594583,00000112,false,Rx,0,8,FE,1F,AC,0D,20,03,65,57,
2594755,000001A1,false,Rx,0,5,7C,CB,00,00,8A,00,00,00,
2605586,00000112,false,Rx,0,8,FE,1F,AC,0D,20,03,65,57,
2616584,00000112,false,Rx,0,8,FE,1F,AC,0D,20,03,65,57,
2616757,000001A1,false,Rx,0,5,7C,CB,00,00,8A,00,00,00,
2625230,00000351,false,Tx,1,8,00,00,00,01,00,00,00,00,
2625376,00000356,false,Tx,1,8,B8,88,00,00,00,00,00,00,
2625623,00000355,false,Tx,1,8,50,00,00,00,00,00,00,00,
2627587,00000112,false,Rx,0,8,FE,1F,AC,0D,20,03,65,57,
2638576,00000112,false,Rx,0,8,FE,1F,AC,0D,20,03,65,57,
2638748,000001A1,false,Rx,0,5,7C,CB,00,00,8A,00,00,00,
2649579,00000112,false,Rx,0,8,FE,1F,AC,0D,20,03,65,57,
2650579,0000003C,false,Rx,0,8,FF,5F,00,00,00,00,FF,FF,
2651582,000003E9,false,Rx,0,8,00,00,00,00,00,00,00,00,
2652555,00000431,false,Rx,0,8,CA,FF,0B,02,69,26,F3,4B,
2653558,0000012F,false,Rx,0,8,F5,28,8A,1D,F1,35,30,80,
2654579,000002F1,false,Rx,0,8,9A,10,7D,00,00,00,00,A0,
2660579,00000112,false,Rx,0,8,FE,1F,AC,0D,20,03,65,57,
2660752,000001A1,false,Rx,0,5,7C,CB,00,00,8A,00,00,00,
2671585,00000112,false,Rx,0,8,FE,1F,AC,0D,20,03,65,57,
2673570,000003B4,false,Rx,0,8,00,00,0C,F0,B8,FF,00,00,
2682579,00000112,false,Rx,0,8,FE,1F,AC,0D,20,03,65,57,
2682752,000001A1,false,Rx,0,5,7C,CB,00,00,8A,00,00,00,
2693583,00000112,false,Rx,0,8,FE,1F,AC,0D,20,03,65,57,
2704581,00000112,false,Rx,0,8,FE,1F,AC,0D,20,03,65,57,
2704754,000001A1,false,Rx,0,5,7C,CB,00,00,8A,00,00,00,
2708680,00000272,false,Rx,0,8,CA,FD,00,12,FF,FF,FF,FF,
2715587,00000112,false,Rx,0,8,FE,1F,AC,0D,20,03,65,57,
2726575,00000112,false,Rx,0,8,FE,1F,AC,0D,20,03,65,57,
2726757,000001A1,false,Rx,0,5,7C,CB,00,00,8A,00,00,00,
2737579,00000112,false,Rx,0,8,FE,1F,AC,0D,20,03,65,57,
2748580,00000112,false,Rx,0,8,FE,1F,AC,0D,20,03,65,57,
2748752,000001A1,false,Rx,0,5,7C,CB,00,00,8A,00,00,00,
2751604,0000003C,false,Rx,0,8,FF,5F,00,00,00,00,FF,FF,
2752598,000003E9,false,Rx,0,8,00,00,00,00,00,00,00,00,
2753579,00000431,false,Rx,0,8,CA,FF,0B,02,69,26,F3,4B,
2754583,0000012F,false,Rx,0,8,F5,28,8A,1D,F1,35,30,80,
2755595,000002F1,false,Rx,0,8,9A,10,7D,00,00,00,00,A0,
2755845,000002FA,false,Rx,0,8,FD,FF,00,00,FF,FF,FF,FF,
2756589,00000432,false,Rx,0,8,2C,E2,10,A3,A0,FF,02,FF,
2757602,0000051A,false,Rx,0,8,00,00,00,00,50,00,00,1A,
2758607,00000540,false,Rx,0,8,00,00,00,00,FD,3C,FF,40,
2759608,00000510,false,Rx,0,8,40,10,20,00,00,00,00,00,
2760631,00000112,false,Rx,0,8,FE,1F,AC,0D,20,03,65,57,
2771562,00000112,false,Rx,0,8,FE,1F,AC,0D,20,03,65,57,
2771735,000001A1,false,Rx,0,5,7C,CB,00,00,8A,00,00,00,
2782564,00000112,false,Rx,0,8,FE,1F,AC,0D,20,03,65,57,
2793563,00000112,false,Rx,0,8,FE,1F,AC,0D,20,03,65,57,
2793736,000001A1,false,Rx,0,5,7C,CB,00,00,8A,00,00,00,
2804566,00000112,false,Rx,0,8,FE,1F,AC,0D,20,03,65,57,
2815556,00000112,false,Rx,0,8,FE,1F,AC,0D,20,03,65,57,
2815738,000001A1,false,Rx,0,5,7C,CB,00,00,8A,00,00,00,
2826560,00000112,false,Rx,0,8,FE,1F,AC,0D,20,03,65,57,
2837599,00000112,false,Rx,0,8,FE,1F,AC,0D,20,03,65,57,
2837771,000001A1,false,Rx,0,5,7C,CB,00,00,8A,00,00,00,
2848561,00000112,false,Rx,0,8,FE,1F,AC,0D,20,03,65,57,
2852595,0000003C,false,Rx,0,8,FF,5F,00,00,00,00,FF,FF,
2853604,000003E9,false,Rx,0,8,00,00,00,00,00,00,00,00,
2854579,00000431,false,Rx,0,8,CA,FF,0B,02,69,26,F3,4B,
2855580,0000012F,false,Rx,0,8,F5,28,8A,1D,F1,35,30,80,
2856593,000002F1,false,Rx,0,8,9A,10,7D,00,00,00,00,A0,
2859559,00000112,false,Rx,0,8,FE,1F,AC,0D,20,03,65,57,
2859732,000001A1,false,Rx,0,5,7C,CB,00,00,8A,00,00,00,
2870564,00000112,false,Rx,0,8,FE,1F,AC,0D,20,03,65,57,
2873889,000003B4,false,Rx,0,8,00,00,0C,F0,B8,FF,00,00,
2881567,00000112,false,Rx,0,8,FE,1F,AC,0D,20,03,65,57,
2881739,000001A1,false,Rx,0,5,7C,CB,00,00,8A,00,00,00,
2892569,00000112,false,Rx,0,8,FE,1F,AC,0D,20,03,65,57,
2903569,00000112,false,Rx,0,8,FE,1F,AC,0D,20,03,65,57,
2903741,000001A1,false,Rx,0,5,7C,CB,00,00,8A,00,00,00,
2909318,00000272,false,Rx,0,8,2D,FE,00,12,FF,FF,FF,FF,
2914584,00000112,false,Rx,0,8,FE,1F,AC,0D,20,03,65,57,
2925574,00000112,false,Rx,0,8,FE,1F,AC,0D,20,03,65,57,
2925757,000001A1,false,Rx,0,5,7C,CB,00,00,8A,00,00,00,
2936580,00000112,false,Rx,0,8,FE,1F,AC,0D,20,03,65,57,
2947569,00000112,false,Rx,0,8,FE,1F,AC,0D,20,03,65,57,
2947751,000001A1,false,Rx,0,5,7C,CB,00,00,8A,00,00,00,
2953589,0000003C,false,Rx,0,8,FF,5F,00,00,00,00,FF,FF,
2954588,000003E9,false,Rx,0,8,00,00,00,00,00,00,00,00,
2955561,00000431,false,Rx,0,8,CA,FF,0B,02,69,26,F3,4B,
2956565,0000012F,false,Rx,0,8,F5,28,8A,1D,F1,35,30,80,
2957578,000002F1,false,Rx,0,8,9A,10,7D,00,00,00,00,A0,
2957834,000002FA,false,Rx,0,8,FD,FF,00,00,FF,FF,FF,FF,
2958568,00000432,false,Rx,0,8,2C,E2,10,A3,A0,FF,02,FF,
2959581,0000051A,false,Rx,0,8,00,00,00,00,50,00,00,1A,
2960586,00000540,false,Rx,0,8,00,00,00,00,FD,3C,FF,40,
2961589,00000510,false,Rx,0,8,40,10,20,00,00,00,00,00,
2962610,00000112,false,Rx,0,8,FE,1F,AC,0D,20,03,65,57,
2973554,00000112,false,Rx,0,8,FE,1F,AC,0D,20,03,65,57,
2973727,000001A1,false,Rx,0,5,7C,CB,00,00,8A,00,00,00,
2984596,00000112,false,Rx,0,8,FE,1F,AC,0D,20,03,65,57,
2995594,00000112,false,Rx,0,8,FE,1F,AC,0D,20,03,65,57,
2995768,000001A1,false,Rx,0,5,7C,CB,00,00,8A,00,00,00,
3006599,00000112,false,Rx,0,8,FE,1F,AC,0D,20,03,65,57,
3017588,00000112,false,Rx,0,8,FE,1F,AC,0D,20,03,65,57,
3017760,000001A1,false,Rx,0,5,7C,CB,00,00,8A,00,00,00,
3028591,00000112,false,Rx,0,8,FE,1F,AC,0D,20,03,65,57,
3039580,00000112,false,Rx,0,8,FE,1F,AC,0D,20,03,65,57,
3039763,000001A1,false,Rx,0,5,7C,CB,00,00,8A,00,00,00,
3050584,00000112,false,Rx,0,8,FE,1F,AC,0D,20,03,65,57,
3054579,0000003C,false,Rx,0,8,FF,5F,00,00,00,00,FF,FF,
3055578,000003E9,false,Rx,0,8,00,00,00,00,00,00,00,00,
3056563,00000431,false,Rx,0,8,CA,FF,0B,02,69,26,F3,4B,
3057565,0000012F,false,Rx,0,8,F5,28,8A,1D,F1,35,30,80,
3058578,000002F1,false,Rx,0,8,9A,10,7D,00,00,00,00,A0,
3061585,00000112,false,Rx,0,8,FE,1F,AC,0D,20,03,65,57,
3061758,000001A1,false,Rx,0,5,7C,CB,00,00,8A,00,00,00,
3072590,00000112,false,Rx,0,8,FE,1F,AC,0D,20,03,65,57,
3074197,000003B4,false,Rx,0,8,00,00,0C,F0,B8,FF,00,00,
3083583,00000112,false,Rx,0,8,FE,1F,AC,0D,20,03,65,57,
3083755,000001A1,false,Rx,0,5,7C,CB,00,00,8A,00,00,00,
3094585,00000112,false,Rx,0,8,FE,1F,AC,0D,20,03,65,57,
3105584,00000112,false,Rx,0,8,FE,1F,AC,0D,20,03,65,57,
3105757,000001A1,false,Rx,0,5,7C,CB,00,00,8A,00,00,00,
3109306,00000272,false,Rx,0,8,2C,F0,00,12,FF,FF,FF,FF,
3116592,00000112,false,Rx,0,8,FE,1F,AC,0D,20,03,65,57,
3127591,00000112,false,Rx,0,8,FE,1F,AC,0D,20,03,65,57,
3127763,000001A1,false,Rx,0,5,7C,CB,00,00,8A,00,00,00,
3138594,00000112,false,Rx,0,8,FE,1F,AC,0D,20,03,65,57,
3147080,00000351,false,Tx,1,8,00,00,00,01,00,00,00,00,
3147247,00000356,false,Tx,1,8,B8,88,00,00,00,00,00,00,
3147410,00000355,false,Tx,1,8,50,00,00,00,00,00,00,00,
3149593,00000112,false,Rx,0,8,FE,1F,AC,0D,20,03,65,57,
3149765,000001A1,false,Rx,0,5,7C,CB,00,00,8A,00,00,00,
3155613,0000003C,false,Rx,0,8,FF,5F,00,00,00,00,FF,FF,
3156613,000003E9,false,Rx,0,8,00,00,00,00,00,00,00,00,
3157586,00000431,false,Rx,0,8,CA,FF,0B,02,69,26,F3,4B,
3158590,0000012F,false,Rx,0,8,F5,28,8A,1D,F1,35,30,80,
3159603,000002F1,false,Rx,0,8,9A,10,7D,00,00,00,00,A0,
3159859,000002FA,false,Rx,0,8,FD,FF,00,00,FF,FF,FF,FF,
3160594,00000432,false,Rx,0,8,2C,E2,10,A3,A0,FF,02,FF,
3161608,0000051A,false,Rx,0,8,00,00,00,00,50,00,00,1A,
3162611,00000540,false,Rx,0,8,00,00,00,00,FD,3C,FF,40,
3163614,00000510,false,Rx,0,8,40,10,20,00,00,00,00,00,
3164635,00000112,false,Rx,0,8,FE,1F,AC,0D,20,03,65,57,
3175569,00000112,false,Rx,0,8,FE,1F,AC,0D,20,03,65,57,
3175741,000001A1,false,Rx,0,5,7C,CB,00,00,8A,00,00,00,
3186571,00000112,false,Rx,0,8,FE,1F,AC,0D,20,03,65,57,
3197569,00000112,false,Rx,0,8,FE,1F,AC,0D,20,03,65,57,
3197743,000001A1,false,Rx,0,5,7C,CB,00,00,8A,00,00,00,
3208574,00000112,false,Rx,0,8,FE,1F,AC,0D,20,03,65,57,
3219563,00000112,false,Rx,0,8,FE,1F,AC,0D,20,03,65,57,
3219745,000001A1,false,Rx,0,5,7C,CB,00,00,8A,00,00,00,
3230565,00000112,false,Rx,0,8,FE,1F,AC,0D,20,03,65,57,
3241566,00000112,false,Rx,0,8,FE,1F,AC,0D,20,03,65,57,
3241738,000001A1,false,Rx,0,5,7C,CB,00,00,8A,00,00,00,
3252568,00000112,false,Rx,0,8,FE,1F,AC,0D,20,03,65,57,
3256612,0000003C,false,Rx,0,8,FF,5F,00,00,00,00,FF,FF,
3257613,000003E9,false,Rx,0,8,00,00,00,00,00,00,00,00,
3258586,00000431,false,Rx,0,8,CA,FF,0B,02,69,26,F3,4B,
3259587,0000012F,false,Rx,0,8,F5,28,8A,1D,F1,35,30,80,
3260610,000002F1,false,Rx,0,8,9A,10,7D,00,00,00,00,A0,
3263567,00000112,false,Rx,0,8,FE,1F,AC,0D,20,03,65,57,
3263740,000001A1,false,Rx,0,5,7C,CB,00,00,8A,00,00,00,
3274400,00000337,false,Rx,0,2,FF,FF,00,00,00,00,00,00,
3274642,00000112,false,Rx,0,8,FE,1F,AC,0D,20,03,65,57,
3274882,000003B4,false,Rx,0,8,00,00,0C,F0,B8,FF,00,00,
3285573,00000112,false,Rx,0,8,FE,1F,AC,0D,20,03,65,57,
3285745,000001A1,false,Rx,0,5,7C,CB,00,00,8A,00,00,00,
3296575,00000112,false,Rx,0,8,FE,1F,AC,0D,20,03,65,57,
3307574,00000112,false,Rx,0,8,FE,1F,AC,0D,20,03,65,57,
3307747,000001A1,false,Rx,0,5,7C,CB,00,00,8A,00,00,00,
3309653,00000272,false,Rx,0,8,71,F1,00,12,FF,FF,FF,FF,
3318581,00000112,false,Rx,0,8,FE,1F,AC,0D,20,03,65,57,
3329579,00000112,false,Rx,0,8,FE,1F,AC,0D,20,03,65,57,
3329752,000001A1,false,Rx,0,5,7C,CB,00,00,8A,00,00,00,
3340585,00000112,false,Rx,0,8,FE,1F,AC,0D,20,03,65,57,
3351573,00000112,false,Rx,0,8,FE,1F,AC,0D,20,03,65,57,
3351755,000001A1,false,Rx,0,5,7C,CB,00,00,8A,00,00,00,
3357593,0000003C,false,Rx,0,8,FF,5F,00,00,00,00,FF,FF,
3358593,000003E9,false,Rx,0,8,00,00,00,00,00,00,00,00,
3359566,00000431,false,Rx,0,8,CA,FF,0B,02,69,26,F3,4B,
3360569,0000012F,false,Rx,0,8,F5,28,8A,1D,F1,35,30,80,
3361582,000002F1,false,Rx,0,8,9A,10,7D,00,00,00,00,A0,
3361838,000002FA,false,Rx,0,8,FD,FF,00,00,FF,FF,FF,FF,
3362572,00000432,false,Rx,0,8,2C,E2,10,A3,A0,FF,02,FF,
3363586,0000051A,false,Rx,0,8,00,00,00,00,50,00,00,1A,
3364590,00000540,false,Rx,0,8,00,00,00,00,FD,3C,FF,40,
3365593,00000510,false,Rx,0,8,40,10,20,00,00,00,00,00,
3366614,00000112,false,Rx,0,8,FE,1F,AC,0D,20,03,65,57,
3377559,00000112,false,Rx,0,8,FE,1F,AC,0D,20,03,65,57,
3377731,000001A1,false,Rx,0,5,7C,CB,00,00,8A,00,00,00,
3384669,000003C3,false,Rx,0,8,71,08,06,61,1C,C4,63,20,
3388564,00000112,false,Rx,0,8,FE,1F,AC,0D,20,03,65,57,
3399562,00000112,false,Rx,0,8,FE,1F,AC,0D,20,03,65,57,
3399736,000001A1,false,Rx,0,5,7C,CB,00,00,8A,00,00,00,
3410566,00000112,false,Rx,0,8,FE,1F,AC,0D,20,03,65,57,
3421604,00000112,false,Rx,0,8,FE,1F,AC,0D,20,03,65,57,
3421777,000001A1,false,Rx,0,5,7C,CB,00,00,8A,00,00,00,
3432567,00000112,false,Rx,0,8,FE,1F,AC,0D,20,03,65,57,
3443607,00000112,false,Rx,0,8,FE,1F,AC,0D,20,03,65,57,
3443779,000001A1,false,Rx,0,5,7C,CB,00,00,8A,00,00,00,
3454569,00000112,false,Rx,0,8,FE,1F,AC,0D,20,03,65,57,
3458605,0000003C,false,Rx,0,8,FF,5F,00,00,00,00,FF,FF,
3459605,000003E9,false,Rx,0,8,00,00,00,00,00,00,00,00,
3460588,00000431,false,Rx,0,8,CA,FF,0B,02,69,26,F3,4B,
3461589,0000012F,false,Rx,0,8,F5,28,8A,1D,F1,35,30,80,
3462602,000002F1,false,Rx,0,8,9A,10,7D,00,00,00,00,A0,
3465569,00000112,false,Rx,0,8,FE,1F,AC,0D,20,03,65,57,
3465743,000001A1,false,Rx,0,5,7C,CB,00,00,8A,00,00,00,
3474832,000003B4,false,Rx,0,8,00,00,0C,F0,B8,FF,00,00,
3476578,00000112,false,Rx,0,8,FE,1F,AC,0D,20,03,65,57,
3487574,00000112,false,Rx,0,8,FE,1F,AC,0D,20,03,65,57,
3487747,000001A1,false,Rx,0,5,7C,CB,00,00,8A,00,00,00,
3498577,00000112,false,Rx,0,8,FE,1F,AC,0D,20,03,65,57,
3509568,00000112,false,Rx,0,8,FE,1F,AC,0D,20,03,65,57,
3509740,000001A1,false,Rx,0,5,7C,CB,00,00,8A,00,00,00,
3510388,00000272,false,Rx,0,8,96,F2,00,12,FF,FF,FF,FF,
3520581,00000112,false,Rx,0,8,FE,1F,AC,0D,20,03,65,57,
3531579,00000112,false,Rx,0,8,FE,1F,AC,0D,20,03,65,57,
3531752,000001A1,false,Rx,0,5,7C,CB,00,00,8A,00,00,00,
3542584,00000112,false,Rx,0,8,FE,1F,AC,0D,20,03,65,57,
3553583,00000112,false,Rx,0,8,FE,1F,AC,0D,20,03,65,57,
3553755,000001A1,false,Rx,0,5,7C,CB,00,00,8A,00,00,00,
3559603,0000003C,false,Rx,0,8,FF,5F,00,00,00,00,FF,FF,
3560602,000003E9,false,Rx,0,8,00,00,00,00,00,00,00,00,
3561575,00000431,false,Rx,0,8,CA,FF,0B,02,69,26,F3,4B,
3562578,0000012F,false,Rx,0,8,F5,28,8A,1D,F1,35,30,80,
3563591,000002F1,false,Rx,0,8,9A,10,7D,00,00,00,00,A0,
3563847,000002FA,false,Rx,0,8,FD,FF,00,00,FF,FF,FF,FF,
3564591,00000432,false,Rx,0,8,2C,E2,10,A3,A0,FF,02,FF,
3565595,0000051A,false,Rx,0,8,00,00,00,00,50,00,00,1A,
3566598,00000540,false,Rx,0,8,00,00,00,00,FD,3C,FF,40,
3567601,00000510,false,Rx,0,8,40,10,20,00,00,00,00,00,
3568563,00000328,false,Rx,0,6,3C,00,00,00,87,1E,00,00,
3569567,000003E8,false,Rx,0,6,F1,FF,00,00,87,1E,00,00,
3570597,000003F9,false,Rx,0,8,C0,F9,80,E0,43,3C,C3,FF,
3571610,000002FC,false,Rx,0,8,81,00,04,FF,FF,FF,FF,FF,
3572605,000002A0,false,Rx,0,8,88,88,F8,0F,FF,FF,FF,FF,
3573608,000003A0,false,Rx,0,8,FF,FF,C0,FF,FF,FF,FF,FC,
3573833,00000112,false,Rx,0,8,FE,1F,AC,0D,20,03,65,57,
3584573,00000112,false,Rx,0,8,FE,1F,AC,0D,20,03,65,57,
3584745,000001A1,false,Rx,0,5,7C,CB,00,00,8A,00,00,00,
3595576,00000112,false,Rx,0,8,FE,1F,AC,0D,20,03,65,57,
3606574,00000112,false,Rx,0,8,FE,1F,AC,0D,20,03,65,57,
3606747,000001A1,false,Rx,0,5,7C,CB,00,00,8A,00,00,00,
3617579,00000112,false,Rx,0,8,FE,1F,AC,0D,20,03,65,57,
3628570,00000112,false,Rx,0,8,FE,1F,AC,0D,20,03,65,57,
3628743,000001A1,false,Rx,0,5,7C,CB,00,00,8A,00,00,00,
3639573,00000112,false,Rx,0,8,FE,1F,AC,0D,20,03,65,57,
3650571,00000112,false,Rx,0,8,FE,1F,AC,0D,20,03,65,57,
3650743,000001A1,false,Rx,0,5,7C,CB,00,00,8A,00,00,00,
3660603,0000003C,false,Rx,0,8,FF,5F,00,00,00,00,FF,FF,
3661604,000003E9,false,Rx,0,8,00,00,00,00,00,00,00,00,
3662587,00000431,false,Rx,0,8,CA,FF,0B,02,69,26,F3,4B,
3663588,0000012F,false,Rx,0,8,F5,28,8A,1D,F1,35,30,80,
3664601,000002F1,false,Rx,0,8,9A,10,7D,00,00,00,00,A0,
3664827,00000112,false,Rx,0,8,FE,1F,AC,0D,20,03,65,57,
3669896,00000351,false,Tx,1,8,00,00,00,01,00,00,00,00,
3670022,00000356,false,Tx,1,8,B8,88,00,00,00,00,00,00,
3670171,00000355,false,Tx,1,8,50,00,00,00,00,00,00,00,
3675179,000003B4,false,Rx,0,8,00,00,0C,F0,B8,FF,00,00,
3675582,00000112,false,Rx,0,8,FE,1F,AC,0D,20,03,65,57,
3675758,000001A1,false,Rx,0,5,7C,CB,00,00,8A,00,00,00,
3686583,00000112,false,Rx,0,8,FE,1F,AC,0D,20,03,65,57,
3697581,00000112,false,Rx,0,8,FE,1F,AC,0D,20,03,65,57,
3697755,000001A1,false,Rx,0,5,7C,CB,00,00,8A,00,00,00,
3708584,00000112,false,Rx,0,8,FE,1F,AC,0D,20,03,65,57,
3710310,00000272,false,Rx,0,8,CB,F3,00,12,FF,FF,FF,FF,
3719576,00000112,false,Rx,0,8,FE,1F,AC,0D,20,03,65,57,
3719758,000001A1,false,Rx,0,5,7C,CB,00,00,8A,00,00,00,
3730578,00000112,false,Rx,0,8,FE,1F,AC,0D,20,03,65,57,
3741577,00000112,false,Rx,0,8,FE,1F,AC,0D,20,03,65,57,
3741749,000001A1,false,Rx,0,5,7C,CB,00,00,8A,00,00,00,
3752579,00000112,false,Rx,0,8,FE,1F,AC,0D,20,03,65,57,
3761577,0000003C,false,Rx,0,8,FF,5F,00,00,00,00,FF,FF,
3762586,000003E9,false,Rx,0,8,00,00,00,00,00,00,00,00,
3763559,00000431,false,Rx,0,8,CA,FF,0B,02,69,26,F3,4B,
3764562,0000012F,false,Rx,0,8,F5,28,8A,1D,F1,35,30,80,
3765575,000002F1,false,Rx,0,8,9A,10,7D,00,00,00,00,A0,
3765831,000002FA,false,Rx,0,8,FD,FF,00,00,FF,FF,FF,FF,
3766565,00000432,false,Rx,0,8,2C,E2,10,A3,A0,FF,02,FF,
3767580,0000051A,false,Rx,0,8,00,00,00,00,50,00,00,1A,
3768584,00000540,false,Rx,0,8,00,00,00,00,FD,3C,FF,40,
3769587,00000510,false,Rx,0,8,40,10,20,00,00,00,00,00,
3770609,00000112,false,Rx,0,8,FE,1F,AC,0D,20,03,65,57,
3770785,000001A1,false,Rx,0,5,7C,CB,00,00,8A,00,00,00,
3781593,00000112,false,Rx,0,8,FE,1F,AC,0D,20,03,65,57,
3792591,00000112,false,Rx,0,8,FE,1F,AC,0D,20,03,65,57,
3792763,000001A1,false,Rx,0,5,7C,CB,00,00,8A,00,00,00,
3803593,00000112,false,Rx,0,8,FE,1F,AC,0D,20,03,65,57,
3814592,00000112,false,Rx,0,8,FE,1F,AC,0D,20,03,65,57,
3814765,000001A1,false,Rx,0,5,7C,CB,00,00,8A,00,00,00,
3825596,00000112,false,Rx,0,8,FE,1F,AC,0D,20,03,65,57,
3836584,00000112,false,Rx,0,8,FE,1F,AC,0D,20,03,65,57,
3836758,000001A1,false,Rx,0,5,7C,CB,00,00,8A,00,00,00,
3847589,00000112,false,Rx,0,8,FE,1F,AC,0D,20,03,65,57,
3858587,00000112,false,Rx,0,8,FE,1F,AC,0D,20,03,65,57,
3858760,000001A1,false,Rx,0,5,7C,CB,00,00,8A,00,00,00,
3862586,0000003C,false,Rx,0,8,FF,5F,00,00,00,00,FF,FF,
3863587,000003E9,false,Rx,0,8,00,00,00,00,00,00,00,00,
3864570,00000431,false,Rx,0,8,CA,FF,0B,02,69,26,F3,4B,
3865571,0000012F,false,Rx,0,8,F5,28,8A,1D,F1,35,30,80,
3866585,000002F1,false,Rx,0,8,9A,10,7D,00,00,00,00,A0,
3869591,00000112,false,Rx,0,8,FE,1F,AC,0D,20,03,65,57,
3875507,000003B4,false,Rx,0,8,00,00,0C,F0,B8,FF,00,00,
3880603,00000112,false,Rx,0,8,FE,1F,AC,0D,20,03,65,57,
3880785,000001A1,false,Rx,0,5,7C,CB,00,00,8A,00,00,00,
3891606,00000112,false,Rx,0,8,FE,1F,AC,0D,20,03,65,57,
3902604,00000112,false,Rx,0,8,FE,1F,AC,0D,20,03,65,57,
3902778,000001A1,false,Rx,0,5,7C,CB,00,00,8A,00,00,00,
3910556,00000272,false,Rx,0,8,45,F4,00,12,FF,FF,FF,FF,
3913611,00000112,false,Rx,0,8,FE,1F,AC,0D,20,03,65,57,
3924599,00000112,false,Rx,0,8,FE,1F,AC,0D,20,03,65,57,
3924782,000001A1,false,Rx,0,5,7C,CB,00,00,8A,00,00,00,
3935603,00000112,false,Rx,0,8,FE,1F,AC,0D,20,03,65,57,
3946602,00000112,false,Rx,0,8,FE,1F,AC,0D,20,03,65,57,
3946774,000001A1,false,Rx,0,5,7C,CB,00,00,8A,00,00,00,
3957604,00000112,false,Rx,0,8,FE,1F,AC,0D,20,03,65,57,
3963611,0000003C,false,Rx,0,8,FF,5F,00,00,00,00,FF,FF,
3964610,000003E9,false,Rx,0,8,00,00,00,00,00,00,00,00,
3965593,00000431,false,Rx,0,8,CA,FF,0B,02,69,26,F3,4B,
3966596,0000012F,false,Rx,0,8,F5,28,8A,1D,F1,35,30,80,
3967610,000002F1,false,Rx,0,8,9A,10,7D,00,00,00,00,A0,
3967858,000002FA,false,Rx,0,8,FD,FF,00,00,FF,FF,FF,FF,
3968602,00000432,false,Rx,0,8,2C,E2,10,A3,A0,FF,02,FF,
3969616,0000051A,false,Rx,0,8,00,00,00,00,50,00,00,1A,
3970620,00000540,false,Rx,0,8,00,00,00,00,FD,3C,FF,40,
3971623,00000510,false,Rx,0,8,40,10,20,00,00,00,00,00,
3972635,00000112,false,Rx,0,8,FE,1F,AC,0D,20,03,65,57,
3972811,000001A1,false,Rx,0,5,7C,CB,00,00,8A,00,00,00,
3983579,00000112,false,Rx,0,8,FE,1F,AC,0D,20,03,65,57,
3994577,00000112,false,Rx,0,8,FE,1F,AC,0D,20,03,65,57,
3994750,000001A1,false,Rx,0,5,7C,CB,00,00,8A,00,00,00,
4005579,00000112,false,Rx,0,8,FE,1F,AC,0D,20,03,65,57,
4016581,00000112,false,Rx,0,8,FE,1F,AC,0D,20,03,65,57,
4016753,000001A1,false,Rx,0,5,7C,CB,00,00,8A,00,00,00,
4027584,00000112,false,Rx,0,8,FE,1F,AC,0D,20,03,65,57,
4038582,00000112,false,Rx,0,8,FE,1F,AC,0D,20,03,65,57,
4038756,000001A1,false,Rx,0,5,7C,CB,00,00,8A,00,00,00,
4049586,00000112,false,Rx,0,8,FE,1F,AC,0D,20,03,65,57,
4060576,00000112,false,Rx,0,8,FE,1F,AC,0D,20,03,65,57,
4060748,000001A1,false,Rx,0,5,7C,CB,00,00,8A,00,00,00,
4064624,0000003C,false,Rx,0,8,FF,5F,00,00,00,00,FF,FF,
4065625,000003E9,false,Rx,0,8,00,00,00,00,00,00,00,00,
4066598,00000431,false,Rx,0,8,CA,FF,0B,02,69,26,F3,4B,
4067600,0000012F,false,Rx,0,8,F5,28,8A,1D,F1,35,30,80,
4068624,000002F1,false,Rx,0,8,9A,10,7D,00,00,00,00,A0,
4071582,00000112,false,Rx,0,8,FE,1F,AC,0D,20,03,65,57,
4075828,000003B4,false,Rx,0,8,00,00,0C,F0,B8,FF,00,00,
4082584,00000112,false,Rx,0,8,FE,1F,AC,0D,20,03,65,57,
4082756,000001A1,false,Rx,0,5,7C,CB,00,00,8A,00,00,00,
4093588,00000112,false,Rx,0,8,FE,1F,AC,0D,20,03,65,57,
4104576,00000112,false,Rx,0,8,FE,1F,AC,0D,20,03,65,57,
4104750,000001A1,false,Rx,0,5,7C,CB,00,00,8A,00,00,00,
4111147,00000272,false,Rx,0,8,18,F5,00,12,FF,FF,FF,FF,
4115582,00000112,false,Rx,0,8,FE,1F,AC,0D,20,03,65,57,
4126581,00000112,false,Rx,0,8,FE,1F,AC,0D,20,03,65,57,
4126753,000001A1,false,Rx,0,5,7C,CB,00,00,8A,00,00,00,
4137583,00000112,false,Rx,0,8,FE,1F,AC,0D,20,03,65,57,
4148583,00000112,false,Rx,0,8,FE,1F,AC,0D,20,03,65,57,
4148755,000001A1,false,Rx,0,5,7C,CB,00,00,8A,00,00,00,
4159584,00000112,false,Rx,0,8,FE,1F,AC,0D,20,03,65,57,
4165591,0000003C,false,Rx,0,8,FF,5F,00,00,00,00,FF,FF,
4166590,000003E9,false,Rx,0,8,00,00,00,00,00,00,00,00,
4167573,00000431,false,Rx,0,8,CA,FF,0B,02,69,26,F3,4B,
4168576,0000012F,false,Rx,0,8,F5,28,8A,1D,F1,35,30,80,
4169589,000002F1,false,Rx,0,8,9A,10,7D,00,00,00,00,A0,
4169837,000002FA,false,Rx,0,8,FD,FF,00,00,FF,FF,FF,FF,
4170581,00000432,false,Rx,0,8,2C,E2,10,A3,A0,FF,02,FF,
4171595,0000051A,false,Rx,0,8,00,00,00,00,50,00,00,1A,
4172599,00000540,false,Rx,0,8,00,00,00,00,FD,3C,FF,40,
4173602,00000510,false,Rx,0,8,40,10,20,00,00,00,00,00,
4174614,00000112,false,Rx,0,8,FE,1F,AC,0D,20,03,65,57,
4174790,000001A1,false,Rx,0,5,7C,CB,00,00,8A,00,00,00,
4185599,00000112,false,Rx,0,8,FE,1F,AC,0D,20,03,65,57,
4192106,00000351,false,Tx,1,8,00,00,00,01,00,00,00,00,
4192231,00000356,false,Tx,1,8,B8,88,00,00,00,00,00,00,
4192395,00000355,false,Tx,1,8,50,00,00,00,00,00,00,00,
4196597,00000112,false,Rx,0,8,FE,1F,AC,0D,20,03,65,57,
4196770,000001A1,false,Rx,0,5,7C,CB,00,00,8A,00,00,00,
4207602,00000112,false,Rx,0,8,FE,1F,AC,0D,20,03,65,57,
4218601,00000112,false,Rx,0,8,FE,1F,AC,0D,20,03,65,57,
4218773,000001A1,false,Rx,0,5,7C,CB,00,00,8A,00,00,00,
4229603,00000112,false,Rx,0,8,FE,1F,AC,0D,20,03,65,57,
4240592,00000112,false,Rx,0,8,FE,1F,AC,0D,20,03,65,57,
4240766,000001A1,false,Rx,0,5,7C,CB,00,00,8A,00,00,00,
4251595,00000112,false,Rx,0,8,FE,1F,AC,0D,20,03,65,57,
4262595,00000112,false,Rx,0,8,FE,1F,AC,0D,20,03,65,57,
4262767,000001A1,false,Rx,0,5,7C,CB,00,00,8A,00,00,00,
4266595,0000003C,false,Rx,0,8,FF,5F,00,00,00,00,FF,FF,
4267595,000003E9,false,Rx,0,8,00,00,00,00,00,00,00,00,
4268578,00000431,false,Rx,0,8,CA,FF,0B,02,69,26,F3,4B,
4269580,0000012F,false,Rx,0,8,F5,28,8A,1D,F1,35,30,80,
4270595,000002F1,false,Rx,0,8,9A,10,7D,00,00,00,00,A0,
4273600,00000112,false,Rx,0,8,FE,1F,AC,0D,20,03,65,57,
4275986,00000337,false,Rx,0,2,FF,FF,00,00,00,00,00,00,
4276267,000003B4,false,Rx,0,8,00,00,0C,F0,B8,FF,00,00,
4284584,00000112,false,Rx,0,8,FE,1F,AC,0D,20,03,65,57,
4284757,000001A1,false,Rx,0,5,7C,CB,00,00,8A,00,00,00,
4295589,00000112,false,Rx,0,8,FE,1F,AC,0D,20,03,65,57,
4306588,00000112,false,Rx,0,8,FE,1F,AC,0D,20,03,65,57,
4306761,000001A1,false,Rx,0,5,7C,CB,00,00,8A,00,00,00,
4311197,00000272,false,Rx,0,8,FF,F6,00,12,FF,FF,FF,FF,
4317594,00000112,false,Rx,0,8,FE,1F,AC,0D,20,03,65,57,
4328594,00000112,false,Rx,0,8,FE,1F,AC,0D,20,03,65,57,
4328767,000001A1,false,Rx,0,5,7C,CB,00,00,8A,00,00,00,
4339598,00000112,false,Rx,0,8,FE,1F,AC,0D,20,03,65,57,
4346195,000003C3,false,Rx,0,8,72,10,48,92,24,48,92,24,
4350590,00000112,false,Rx,0,8,FE,1F,AC,0D,20,03,65,57,
4350773,000001A1,false,Rx,0,5,7C,CB,00,00,8A,00,00,00,
4361593,00000112,false,Rx,0,8,FE,1F,AC,0D,20,03,65,57,
4367599,0000003C,false,Rx,0,8,FF,5F,00,00,00,00,FF,FF,
4368608,000003E9,false,Rx,0,8,00,00,00,00,00,00,00,00,
4369581,00000431,false,Rx,0,8,CA,FF,0B,02,69,26,F3,4B,
4370585,0000012F,false,Rx,0,8,F5,28,8A,1D,F1,35,30,80,
4371597,000002F1,false,Rx,0,8,9A,10,7D,00,00,00,00,A0,
4371846,000002FA,false,Rx,0,8,FD,FF,00,00,FF,FF,FF,FF,
4372590,00000432,false,Rx,0,8,2C,E2,10,A3,A0,FF,02,FF,
4373605,0000051A,false,Rx,0,8,00,00,00,00,50,00,00,1A,
4374608,00000540,false,Rx,0,8,00,00,00,00,FD,3C,FF,40,
4375611,00000510,false,Rx,0,8,40,10,20,00,00,00,00,00,
4376624,00000112,false,Rx,0,8,FE,1F,AC,0D,20,03,65,57,
4376800,000001A1,false,Rx,0,5,7C,CB,00,00,8A,00,00,00,
4387609,00000112,false,Rx,0,8,FE,1F,AC,0D,20,03,65,57,
4398608,00000112,false,Rx,0,8,FE,1F,AC,0D,20,03,65,57,
4398780,000001A1,false,Rx,0,5,7C,CB,00,00,8A,00,00,00,
4409613,00000112,false,Rx,0,8,FE,1F,AC,0D,20,03,65,57,
4420611,00000112,false,Rx,0,8,FE,1F,AC,0D,20,03,65,57,
4420783,000001A1,false,Rx,0,5,7C,CB,00,00,8A,00,00,00,
4431573,00000112,false,Rx,0,8,FE,1F,AC,0D,20,03,65,57,
4442612,00000112,false,Rx,0,8,FE,1F,AC,0D,20,03,65,57,
4442785,000001A1,false,Rx,0,5,7C,CB,00,00,8A,00,00,00,
4453614,00000112,false,Rx,0,8,FE,1F,AC,0D,20,03,65,57,
4464613,00000112,false,Rx,0,8,FE,1F,AC,0D,20,03,65,57,
4464785,000001A1,false,Rx,0,5,7C,CB,00,00,8A,00,00,00,
4468612,0000003C,false,Rx,0,8,FF,5F,00,00,00,00,FF,FF,
4469613,000003E9,false,Rx,0,8,00,00,00,00,00,00,00,00,
4470596,00000431,false,Rx,0,8,CA,FF,0B,02,69,26,F3,4B,
4471597,0000012F,false,Rx,0,8,F5,28,8A,1D,F1,35,30,80,
4472612,000002F1,false,Rx,0,8,9A,10,7D,00,00,00,00,A0,
4475577,00000112,false,Rx,0,8,FE,1F,AC,0D,20,03,65,57,
4476408,000003B4,false,Rx,0,8,00,00,0C,F0,B8,FF,00,00,
4486569,00000112,false,Rx,0,8,FE,1F,AC,0D,20,03,65,57,
4486751,000001A1,false,Rx,0,5,7C,CB,00,00,8A,00,00,00,
4497570,00000112,false,Rx,0,8,FE,1F,AC,0D,20,03,65,57,
4508609,00000112,false,Rx,0,8,FE,1F,AC,0D,20,03,65,57,
4508783,000001A1,false,Rx,0,5,7C,CB,00,00,8A,00,00,00,
4511515,00000272,false,Rx,0,8,A2,F7,00,12,FF,FF,FF,FF,
4519617,00000112,false,Rx,0,8,FE,1F,AC,0D,20,03,65,57,
4530606,00000112,false,Rx,0,8,FE,1F,AC,0D,20,03,65,57,
4530788,000001A1,false,Rx,0,5,7C,CB,00,00,8A,00,00,00,
4541609,00000112,false,Rx,0,8,FE,1F,AC,0D,20,03,65,57,
4552609,00000112,false,Rx,0,8,FE,1F,AC,0D,20,03,65,57,
4552781,000001A1,false,Rx,0,5,7C,CB,00,00,8A,00,00,00,
4563613,00000112,false,Rx,0,8,FE,1F,AC,0D,20,03,65,57,
4569623,0000003C,false,Rx,0,8,FF,5F,00,00,00,00,FF,FF,
4570623,000003E9,false,Rx,0,8,00,00,00,00,00,00,00,00,
4571596,00000431,false,Rx,0,8,CA,FF,0B,02,69,26,F3,4B,
4572598,0000012F,false,Rx,0,8,F5,28,8A,1D,F1,35,30,80,
4573611,000002F1,false,Rx,0,8,9A,10,7D,00,00,00,00,A0,
4573867,000002FA,false,Rx,0,8,FD,FF,00,00,FF,FF,FF,FF,
4574611,00000432,false,Rx,0,8,2C,E2,10,A3,A0,FF,02,FF,
4575625,0000051A,false,Rx,0,8,00,00,00,00,50,00,00,1A,
4576619,00000540,false,Rx,0,8,00,00,00,00,FD,3C,FF,40,
4577632,00000510,false,Rx,0,8,40,10,20,00,00,00,00,00,
4578575,00000328,false,Rx,0,6,3D,00,00,00,87,1E,00,00,
4579587,000003E8,false,Rx,0,6,F1,FF,00,00,87,1E,00,00,
4580617,000003F9,false,Rx,0,8,C0,F9,80,E0,43,3C,C3,FF,
4581651,00000112,false,Rx,0,8,FE,1F,AC,0D,20,03,65,57,
4581826,000001A1,false,Rx,0,5,7C,CB,00,00,8A,00,00,00,
4592596,00000112,false,Rx,0,8,FE,1F,AC,0D,20,03,65,57,
4603594,00000112,false,Rx,0,8,FE,1F,AC,0D,20,03,65,57,
4603767,000001A1,false,Rx,0,5,7C,CB,00,00,8A,00,00,00,
4614598,00000112,false,Rx,0,8,FE,1F,AC,0D,20,03,65,57,
4625587,00000112,false,Rx,0,8,FE,1F,AC,0D,20,03,65,57,
4625769,000001A1,false,Rx,0,5,7C,CB,00,00,8A,00,00,00,
4636589,00000112,false,Rx,0,8,FE,1F,AC,0D,20,03,65,57,
4647587,00000112,false,Rx,0,8,FE,1F,AC,0D,20,03,65,57,
4647761,000001A1,false,Rx,0,5,7C,CB,00,00,8A,00,00,00,
4658591,00000112,false,Rx,0,8,FE,1F,AC,0D,20,03,65,57,
4669589,00000112,false,Rx,0,8,FE,1F,AC,0D,20,03,65,57,
4669762,000001A1,false,Rx,0,5,7C,CB,00,00,8A,00,00,00,
4670598,0000003C,false,Rx,0,8,FF,5F,00,00,00,00,FF,FF,
4671603,000003E9,false,Rx,0,8,00,00,00,00,00,00,00,00,
4672576,00000431,false,Rx,0,8,CA,FF,0B,02,69,26,F3,4B,
4673579,0000012F,false,Rx,0,8,F5,28,8A,1D,F1,35,30,80,
4674592,000002F1,false,Rx,0,8,9A,10,7D,00,00,00,00,A0,
4676724,000003B4,false,Rx,0,8,00,00,0C,F0,B8,FF,00,00,
4680594,00000112,false,Rx,0,8,FE,1F,AC,0D,20,03,65,57,
4691594,00000112,false,Rx,0,8,FE,1F,AC,0D,20,03,65,57,
4691767,000001A1,false,Rx,0,5,7C,CB,00,00,8A,00,00,00,
4702598,00000112,false,Rx,0,8,FE,1F,AC,0D,20,03,65,57,
4712096,00000272,false,Rx,0,8,FE,F8,00,12,FF,FF,FF,FF,
4713592,00000112,false,Rx,0,8,FE,1F,AC,0D,20,03,65,57,
4713769,000001A1,false,Rx,0,5,7C,CB,00,00,8A,00,00,00,
4719848,00000351,false,Tx,1,8,00,00,00,01,00,00,00,00,
4720000,00000356,false,Tx,1,8,B8,88,00,00,00,00,00,00,
4720173,00000355,false,Tx,1,8,50,00,00,00,00,00,00,00,
4724590,00000112,false,Rx,0,8,FE,1F,AC,0D,20,03,65,57,
4735591,00000112,false,Rx,0,8,FE,1F,AC,0D,20,03,65,57,
4735763,000001A1,false,Rx,0,5,7C,CB,00,00,8A,00,00,00,
4746593,00000112,false,Rx,0,8,FE,1F,AC,0D,20,03,65,57,
4757592,00000112,false,Rx,0,8,FE,1F,AC,0D,20,03,65,57,
4757765,000001A1,false,Rx,0,5,7C,CB,00,00,8A,00,00,00,
4768594,00000112,false,Rx,0,8,FE,1F,AC,0D,20,03,65,57,
4771609,0000003C,false,Rx,0,8,FF,5F,00,00,00,00,FF,FF,
4772608,000003E9,false,Rx,0,8,00,00,00,00,00,00,00,00,
4773581,00000431,false,Rx,0,8,CA,FF,0B,02,69,26,F3,4B,
4774585,0000012F,false,Rx,0,8,F5,28,8A,1D,F1,35,30,80,
4775607,000002F1,false,Rx,0,8,9A,10,7D,00,00,00,00,A0,
4775857,000002FA,false,Rx,0,8,FD,FF,00,00,FF,FF,FF,FF,
4776601,00000432,false,Rx,0,8,2C,E2,10,A3,A0,FF,02,FF,
4777605,0000051A,false,Rx,0,8,00,00,00,00,50,00,00,1A,
4778608,00000540,false,Rx,0,8,00,00,00,00,FD,3C,FF,40,
4779611,00000510,false,Rx,0,8,40,10,20,00,00,00,00,00,
4780634,00000112,false,Rx,0,8,FE,1F,AC,0D,20,03,65,57,
4780810,000001A1,false,Rx,0,5,7C,CB,00,00,8A,00,00,00,
4791578,00000112,false,Rx,0,8,FE,1F,AC,0D,20,03,65,57,
4802616,00000112,false,Rx,0,8,FE,1F,AC,0D,20,03,65,57,
4802788,000001A1,false,Rx,0,5,7C,CB,00,00,8A,00,00,00,
4813569,00000112,false,Rx,0,8,FE,1F,AC,0D,20,03,65,57,
4824611,00000112,false,Rx,0,8,FE,1F,AC,0D,20,03,65,57,
4824783,000001A1,false,Rx,0,5,7C,CB,00,00,8A,00,00,00,
4835613,00000112,false,Rx,0,8,FE,1F,AC,0D,20,03,65,57,
4846612,00000112,false,Rx,0,8,FE,1F,AC,0D,20,03,65,57,
4846784,000001A1,false,Rx,0,5,7C,CB,00,00,8A,00,00,00,
4857614,00000112,false,Rx,0,8,FE,1F,AC,0D,20,03,65,57,
4868613,00000112,false,Rx,0,8,FE,1F,AC,0D,20,03,65,57,
4868785,000001A1,false,Rx,0,5,7C,CB,00,00,8A,00,00,00,
4872612,0000003C,false,Rx,0,8,FF,5F,00,00,00,00,FF,FF,
4873613,000003E9,false,Rx,0,8,00,00,00,00,00,00,00,00,
4874596,00000431,false,Rx,0,8,CA,FF,0B,02,69,26,F3,4B,
4875597,0000012F,false,Rx,0,8,F5,28,8A,1D,F1,35,30,80,
4876611,000002F1,false,Rx,0,8,9A,10,7D,00,00,00,00,A0,
4877096,000003B4,false,Rx,0,8,00,00,0C,F0,B8,FF,00,00,
4879576,00000112,false,Rx,0,8,FE,1F,AC,0D,20,03,65,57,
4890619,00000112,false,Rx,0,8,FE,1F,AC,0D,20,03,65,57,
4890791,000001A1,false,Rx,0,5,7C,CB,00,00,8A,00,00,00,
4901583,00000112,false,Rx,0,8,FE,1F,AC,0D,20,03,65,57,
4912132,00000272,false,Rx,0,8,A3,F9,00,12,FF,FF,FF,FF,
4912573,00000112,false,Rx,0,8,FE,1F,AC,0D,20,03,65,57,
4912751,000001A1,false,Rx,0,5,7C,CB,00,00,8A,00,00,00,
4923586,00000112,false,Rx,0,8,FE,1F,AC,0D,20,03,65,57,
4934575,00000112,false,Rx,0,8,FE,1F,AC,0D,20,03,65,57,
4934747,000001A1,false,Rx,0,5,7C,CB,00,00,8A,00,00,00,
4945579,00000112,false,Rx,0,8,FE,1F,AC,0D,20,03,65,57,
4956619,00000112,false,Rx,0,8,FE,1F,AC,0D,20,03,65,57,
4956792,000001A1,false,Rx,0,5,7C,CB,00,00,8A,00,00,00,
4967581,00000112,false,Rx,0,8,FE,1F,AC,0D,20,03,65,57,
4973627,0000003C,false,Rx,0,8,FF,5F,00,00,00,00,FF,FF,
4974626,000003E9,false,Rx,0,8,00,00,00,00,00,00,00,00,
4975611,00000431,false,Rx,0,8,CA,FF,0B,02,69,26,F3,4B,
4976613,0000012F,false,Rx,0,8,F5,28,8A,1D,F1,35,30,80,
4977626,000002F1,false,Rx,0,8,9A,10,7D,00,00,00,00,A0,
4977874,000002FA,false,Rx,0,8,FD,FF,00,00,FF,FF,FF,FF,
4978618,00000432,false,Rx,0,8,2C,E2,10,A3,A0,FF,02,FF,
4979633,0000051A,false,Rx,0,8,00,00,00,00,50,00,00,1A,
4980636,00000540,false,Rx,0,8,00,00,00,00,FD,3C,FF,40,
4981639,00000510,false,Rx,0,8,40,10,20,00,00,00,00,00,
4982652,00000112,false,Rx,0,8,FE,1F,AC,0D,20,03,65,57,
4982829,000001A1,false,Rx,0,5,7C,CB,00,00,8A,00,00,00,
4993596,00000112,false,Rx,0,8,FE,1F,AC,0D,20,03,65,57,
5004594,00000112,false,Rx,0,8,FE,1F,AC,0D,20,03,65,57,
5004766,000001A1,false,Rx,0,5,7C,CB,00,00,8A,00,00,00,
5015599,00000112,false,Rx,0,8,FE,1F,AC,0D,20,03,65,57,
5026598,00000112,false,Rx,0,8,FE,1F,AC,0D,20,03,65,57,
5026770,000001A1,false,Rx,0,5,7C,CB,00,00,8A,00,00,00,
5037601,00000112,false,Rx,0,8,FE,1F,AC,0D,20,03,65,57,
5048591,00000112,false,Rx,0,8,FE,1F,AC,0D,20,03,65,57,
5048773,000001A1,false,Rx,0,5,7C,CB,00,00,8A,00,00,00,
5059594,00000112,false,Rx,0,8,FE,1F,AC,0D,20,03,65,57,
5070585,00000112,false,Rx,0,8,FE,1F,AC,0D,20,03,65,57,
5070767,000001A1,false,Rx,0,5,7C,CB,00,00,8A,00,00,00,
5074595,0000003C,false,Rx,0,8,FF,5F,00,00,00,00,FF,FF,
5075595,000003E9,false,Rx,0,8,00,00,00,00,00,00,00,00,
5076569,00000431,false,Rx,0,8,CA,FF,0B,02,69,26,F3,4B,
5077352,000003B4,false,Rx,0,8,00,00,0C,F0,B8,FF,00,00,
5077568,0000012F,false,Rx,0,8,F5,28,8A,1D,F1,35,30,80,
5078585,000002F1,false,Rx,0,8,9A,10,7D,00,00,00,00,A0,
5081594,00000112,false,Rx,0,8,FE,1F,AC,0D,20,03,65,57,
5092592,00000112,false,Rx,0,8,FE,1F,AC,0D,20,03,65,57,
5092765,000001A1,false,Rx,0,5,7C,CB,00,00,8A,00,00,00,
5103594,00000112,false,Rx,0,8,FE,1F,AC,0D,20,03,65,57,
5112453,00000272,false,Rx,0,8,44,FA,00,12,FF,FF,FF,FF,
5114585,00000112,false,Rx,0,8,FE,1F,AC,0D,20,03,65,57,
5114759,000001A1,false,Rx,0,5,7C,CB,00,00,8A,00,00,00,
5125589,00000112,false,Rx,0,8,FE,1F,AC,0D,20,03,65,57,
5136587,00000112,false,Rx,0,8,FE,1F,AC,0D,20,03,65,57,
5136759,000001A1,false,Rx,0,5,7C,CB,00,00,8A,00,00,00,
5147589,00000112,false,Rx,0,8,FE,1F,AC,0D,20,03,65,57,
5158589,00000112,false,Rx,0,8,FE,1F,AC,0D,20,03,65,57,
5158762,000001A1,false,Rx,0,5,7C,CB,00,00,8A,00,00,00,
5169594,00000112,false,Rx,0,8,FE,1F,AC,0D,20,03,65,57,
5175601,0000003C,false,Rx,0,8,FF,5F,00,00,00,00,FF,FF,
5176600,000003E9,false,Rx,0,8,00,00,00,00,00,00,00,00,
5177573,00000431,false,Rx,0,8,CA,FF,0B,02,69,26,F3,4B,
5178576,0000012F,false,Rx,0,8,F5,28,8A,1D,F1,35,30,80,
5179599,000002F1,false,Rx,0,8,9A,10,7D,00,00,00,00,A0,
5179847,000002FA,false,Rx,0,8,FD,FF,00,00,FF,FF,FF,FF,
5180591,00000432,false,Rx,0,8,2C,E2,10,A3,A0,FF,02,FF,
5181595,0000051A,false,Rx,0,8,00,00,00,00,50,00,00,1A,
5182599,00000540,false,Rx,0,8,00,00,00,00,FD,3C,FF,40,
5183603,00000510,false,Rx,0,8,40,10,20,00,00,00,00,00,
5184625,00000112,false,Rx,0,8,FE,1F,AC,0D,20,03,65,57,
5184802,000001A1,false,Rx,0,5,7C,CB,00,00,8A,00,00,00,
5195609,00000112,false,Rx,0,8,FE,1F,AC,0D,20,03,65,57,
5206609,00000112,false,Rx,0,8,FE,1F,AC,0D,20,03,65,57,
5206783,000001A1,false,Rx,0,5,7C,CB,00,00,8A,00,00,00,
5217613,00000112,false,Rx,0,8,FE,1F,AC,0D,20,03,65,57,
5228602,00000112,false,Rx,0,8,FE,1F,AC,0D,20,03,65,57,
5228784,000001A1,false,Rx,0,5,7C,CB,00,00,8A,00,00,00,
5237056,00000351,false,Tx,1,8,00,00,00,01,00,00,00,00,
5237222,00000356,false,Tx,1,8,B8,88,00,00,00,00,00,00,
5237408,00000355,false,Tx,1,8,50,00,00,00,00,00,00,00,
5239614,00000112,false,Rx,0,8,FE,1F,AC,0D,20,03,65,57,
5250604,00000112,false,Rx,0,8,FE,1F,AC,0D,20,03,65,57,
5250776,000001A1,false,Rx,0,5,7C,CB,00,00,8A,00,00,00,
5261606,00000112,false,Rx,0,8,FE,1F,AC,0D,20,03,65,57,
5272604,00000112,false,Rx,0,8,FE,1F,AC,0D,20,03,65,57,
5272777,000001A1,false,Rx,0,5,7C,CB,00,00,8A,00,00,00,
5276605,0000003C,false,Rx,0,8,FF,5F,00,00,00,00,FF,FF,
5277605,000003E9,false,Rx,0,8,00,00,00,00,00,00,00,00,
5277732,00000337,false,Rx,0,2,FF,FF,00,00,00,00,00,00,
5278021,000003B4,false,Rx,0,8,00,00,0C,F0,B8,FF,00,00,
5278586,00000431,false,Rx,0,8,CA,FF,0B,02,69,26,F3,4B,
5279591,0000012F,false,Rx,0,8,F5,28,8A,1D,F1,35,30,80,
